Time [s],Channel 0,Channel 1
0.000000000,0,0
0.022165000,1,0
0.022982000,0,0
0.022983000,0,1
0.022985000,0,0
0.072280000,1,0
0.073098000,0,1
0.073100000,0,0
0.122396000,1,0
0.123213000,0,0
0.123214000,0,1
0.123216000,0,0
0.172511000,1,0
0.173329000,0,1
0.173331000,0,0
0.222627000,1,0
0.223444000,0,0
0.223445000,0,1
0.223447000,0,0
0.272742000,1,0
0.273560000,0,1
0.273562000,0,0
0.322858000,1,0
0.323676000,0,1
0.323678000,0,0
0.372973000,1,0
0.373791000,0,1
0.373793000,0,0
0.423089000,1,0
0.423907000,0,1
0.423909000,0,0
0.473204000,1,0
0.474022000,0,0
0.474023000,0,1
0.474024000,0,0
0.523320000,1,0
0.524138000,0,1
0.524140000,0,0
0.573435000,1,0
0.574253000,0,0
0.574254000,0,1
0.574255000,0,0
0.623551000,1,0
0.624369000,0,1
0.624371000,0,0
0.673666000,1,0
0.674484000,0,0
0.674485000,0,1
0.674486000,0,0
0.723782000,1,0
0.724600000,0,1
0.724602000,0,0
0.773898000,1,0
0.774715000,0,0
0.774716000,0,1
0.774717000,0,0
0.824013000,1,0
0.824831000,0,1
0.824833000,0,0
0.874129000,1,0
0.874946000,0,0
0.874947000,0,1
0.874948000,0,0
0.924244000,1,0
0.925062000,0,1
0.925064000,0,0
0.974360000,1,0
0.975177000,0,0
0.975178000,0,1
0.975179000,0,0
1.024475000,1,0
1.025293000,0,1
1.025295000,0,0
1.074591000,1,0
1.075408000,0,0
1.075409000,0,1
1.075410000,0,0
1.124706000,1,0
1.125524000,0,1
1.125526000,0,0
1.174822000,1,0
1.175639000,0,0
1.175640000,0,1
1.175641000,0,0
1.224937000,1,0
1.225755000,0,1
1.225757000,0,0
1.275053000,1,0
1.275870000,0,0
1.275871000,0,1
1.275872000,0,0
1.325168000,1,0
1.325986000,0,1
1.325988000,0,0
1.375284000,1,0
1.376101000,0,0
1.376102000,0,1
1.376103000,0,0
1.425399000,1,0
1.426217000,0,1
1.426219000,0,0
1.475515000,1,0
1.476332000,0,0
1.476333000,0,1
1.476334000,0,0
1.525630000,1,0
1.526448000,0,1
1.526450000,0,0
1.575746000,1,0
1.576563000,0,0
1.576564000,0,1
1.576565000,0,0
1.625861000,1,0
1.626679000,0,1
1.626681000,0,0
1.675977000,1,0
1.676794000,0,0
1.676795000,0,1
1.676796000,0,0
1.726092000,1,0
1.726910000,0,1
1.726912000,0,0
1.776208000,1,0
1.777025000,0,0
1.777026000,0,1
1.777027000,0,0
1.826323000,1,0
1.827141000,0,1
1.827143000,0,0
1.876439000,1,0
1.877256000,0,0
1.877257000,0,1
1.877258000,0,0
1.926554000,1,0
1.927372000,0,1
1.927374000,0,0
1.976670000,1,0
1.977487000,0,0
1.977488000,0,1
1.977489000,0,0
2.026785000,1,0
2.027603000,0,1
2.027605000,0,0
2.076901000,1,0
2.077718000,0,0
2.077719000,0,1
2.077720000,0,0
2.127016000,1,0
2.127834000,0,1
2.127836000,0,0
2.177132000,1,0
2.177949000,0,0
2.177950000,0,1
2.177951000,0,0
2.227247000,1,0
2.228065000,0,1
2.228067000,0,0
2.277363000,1,0
2.278180000,0,0
2.278181000,0,1
2.278182000,0,0
2.327478000,1,0
2.328296000,0,1
2.328298000,0,0
2.377594000,1,0
2.378411000,0,0
2.378412000,0,1
2.378413000,0,0
2.427709000,1,0
2.428527000,0,1
2.428529000,0,0
2.477825000,1,0
2.478642000,0,0
2.478643000,0,1
2.478644000,0,0
2.527940000,1,0
2.528758000,0,1
2.528760000,0,0
2.578056000,1,0
2.578873000,0,0
2.578874000,0,1
2.578876000,0,0
2.628171000,1,0
2.628989000,0,1
2.628991000,0,0
2.678287000,1,0
2.679104000,0,0
2.679105000,0,1
2.679107000,0,0
2.728402000,1,0
2.729220000,0,1
2.729222000,0,0
2.778518000,1,0
2.779335000,0,0
2.779336000,0,1
2.779338000,0,0
2.828633000,1,0
2.829451000,0,1
2.829453000,0,0
2.878749000,1,0
2.879566000,0,0
2.879567000,0,1
2.879569000,0,0
2.928864000,1,0
2.929682000,0,1
2.929684000,0,0
2.978980000,1,0
2.979797000,0,0
2.979798000,0,1
2.979800000,0,0
3.029095000,1,0
3.029913000,0,1
3.029915000,0,0
3.079211000,1,0
3.080028000,0,0
3.080029000,0,1
3.080031000,0,0
3.129326000,1,0
3.130144000,0,1
3.130146000,0,0
3.179442000,1,0
3.180259000,0,0
3.180260000,0,1
3.180262000,0,0
3.229557000,1,0
3.230375000,0,1
3.230377000,0,0
3.279673000,1,0
3.280490000,0,0
3.280491000,0,1
3.280493000,0,0
3.329788000,1,0
3.330606000,0,1
3.330608000,0,0
3.379904000,1,0
3.380721000,0,0
3.380722000,0,1
3.380724000,0,0
3.430019000,1,0
3.430837000,0,1
3.430839000,0,0
3.480135000,1,0
3.480952000,0,0
3.480953000,0,1
3.480955000,0,0
3.530250000,1,0
3.531068000,0,1
3.531070000,0,0
3.580366000,1,0
3.581183000,0,0
3.581184000,0,1
3.581186000,0,0
3.630481000,1,0
3.631299000,0,1
3.631301000,0,0
3.680597000,1,0
3.681414000,0,0
3.681415000,0,1
3.681417000,0,0
3.730712000,1,0
3.731530000,0,1
3.731532000,0,0
3.780828000,1,0
3.781645000,0,0
3.781646000,0,1
3.781648000,0,0
3.830943000,1,0
3.831761000,0,1
3.831763000,0,0
3.881059000,1,0
3.881876000,0,0
3.881877000,0,1
3.881879000,0,0
3.931174000,1,0
3.931992000,0,1
3.931994000,0,0
3.981290000,1,0
3.982107000,0,0
3.982108000,0,1
3.982110000,0,0
4.031405000,1,0
4.032223000,0,1
4.032225000,0,0
4.081521000,1,0
4.082338000,0,0
4.082339000,0,1
4.082341000,0,0
4.131636000,1,0
4.132454000,0,1
4.132456000,0,0
4.181752000,1,0
4.182569000,0,0
4.182570000,0,1
4.182572000,0,0
4.231867000,1,0
4.232685000,0,1
4.232687000,0,0
4.281983000,1,0
4.282800000,0,0
4.282801000,0,1
4.282803000,0,0
4.332098000,1,0
4.332916000,0,1
4.332918000,0,0
4.382214000,1,0
4.383031000,0,0
4.383032000,0,1
4.383034000,0,0
4.432329000,1,0
4.433147000,0,1
4.433149000,0,0
4.482445000,1,0
4.483262000,0,0
4.483263000,0,1
4.483265000,0,0
4.532560000,1,0
4.533378000,0,1
4.533380000,0,0
4.582676000,1,0
4.583493000,0,0
4.583494000,0,1
4.583496000,0,0
4.632791000,1,0
4.633609000,0,1
4.633611000,0,0
4.682907000,1,0
4.683724000,0,0
4.683725000,0,1
4.683727000,0,0
4.733022000,1,0
4.733840000,0,1
4.733842000,0,0
4.783138000,1,0
4.783955000,0,0
4.783956000,0,1
4.783958000,0,0
4.833253000,1,0
4.834071000,0,1
4.834073000,0,0
4.883369000,1,0
4.884186000,0,0
4.884187000,0,1
4.884189000,0,0
4.933484000,1,0
4.934302000,0,1
4.934304000,0,0
4.983600000,1,0
4.984417000,0,0
4.984418000,0,1
4.984420000,0,0
5.033715000,1,0
5.034533000,0,1
5.034535000,0,0
5.083831000,1,0
5.084648000,0,0
5.084649000,0,1
5.084651000,0,0
5.133946000,1,0
5.134764000,0,1
5.134766000,0,0
5.184062000,1,0
5.184879000,0,0
5.184880000,0,1
5.184882000,0,0
5.234177000,1,0
5.234995000,0,1
5.234997000,0,0
5.284293000,1,0
5.285110000,0,0
5.285111000,0,1
5.285113000,0,0
5.334408000,1,0
5.335226000,0,1
5.335228000,0,0
5.384524000,1,0
5.385341000,0,0
5.385342000,0,1
5.385344000,0,0
5.434639000,1,0
5.435457000,0,1
5.435459000,0,0
5.484755000,1,0
5.485572000,0,0
5.485573000,0,1
5.485575000,0,0
5.534870000,1,0
5.535688000,0,1
5.535690000,0,0
5.584986000,1,0
5.585803000,0,0
5.585804000,0,1
5.585806000,0,0
5.635101000,1,0
5.635919000,0,1
5.635921000,0,0
5.685217000,1,0
5.686034000,0,0
5.686035000,0,1
5.686037000,0,0
5.735332000,1,0
5.736150000,0,1
5.736152000,0,0
5.785448000,1,0
5.786265000,0,0
5.786266000,0,1
5.786268000,0,0
5.835563000,1,0
5.836381000,0,1
5.836383000,0,0
5.885679000,1,0
5.886496000,0,0
5.886497000,0,1
5.886499000,0,0
5.935794000,1,0
5.936612000,0,1
5.936614000,0,0
5.985910000,1,0
5.986727000,0,0
5.986728000,0,1
5.986730000,0,0
6.036025000,1,0
6.036843000,0,1
6.036845000,0,0
6.086141000,1,0
6.086958000,0,0
6.086959000,0,1
6.086961000,0,0
6.136256000,1,0
6.137074000,0,1
6.137076000,0,0
6.186372000,1,0
6.187189000,0,0
6.187190000,0,1
6.187192000,0,0
6.236487000,1,0
6.237305000,0,1
6.237307000,0,0
6.286603000,1,0
6.287420000,0,0
6.287421000,0,1
6.287423000,0,0
6.336718000,1,0
6.337536000,0,1
6.337538000,0,0
6.386834000,1,0
6.387651000,0,0
6.387652000,0,1
6.387654000,0,0
6.436949000,1,0
6.437767000,0,1
6.437769000,0,0
6.487065000,1,0
6.487882000,0,0
6.487883000,0,1
6.487885000,0,0
6.537180000,1,0
6.537998000,0,1
6.538000000,0,0
6.587296000,1,0
6.588113000,0,0
6.588114000,0,1
6.588116000,0,0
6.637411000,1,0
6.638229000,0,1
6.638231000,0,0
6.687527000,1,0
6.688344000,0,0
6.688345000,0,1
6.688347000,0,0
6.737642000,1,0
6.738460000,0,1
6.738462000,0,0
6.787758000,1,0
6.788575000,0,0
6.788576000,0,1
6.788578000,0,0
6.837873000,1,0
6.838691000,0,1
6.838693000,0,0
6.887989000,1,0
6.888806000,0,0
6.888807000,0,1
6.888809000,0,0
6.938104000,1,0
6.938922000,0,1
6.938924000,0,0
6.988220000,1,0
6.989037000,0,0
6.989038000,0,1
6.989040000,0,0
7.038335000,1,0
7.039153000,0,1
7.039155000,0,0
7.088451000,1,0
7.089268000,0,0
7.089269000,0,1
7.089271000,0,0
7.138566000,1,0
7.139384000,0,1
7.139386000,0,0
7.188682000,1,0
7.189499000,0,0
7.189500000,0,1
7.189502000,0,0
7.238797000,1,0
7.239615000,0,1
7.239617000,0,0
7.288913000,1,0
7.289730000,0,0
7.289731000,0,1
7.289733000,0,0
7.339028000,1,0
7.339846000,0,1
7.339848000,0,0
7.389144000,1,0
7.389961000,0,0
7.389962000,0,1
7.389964000,0,0
7.439259000,1,0
7.440077000,0,1
7.440079000,0,0
7.489375000,1,0
7.490192000,0,0
7.490193000,0,1
7.490195000,0,0
7.539490000,1,0
7.540308000,0,1
7.540310000,0,0
7.589606000,1,0
7.590423000,0,0
7.590424000,0,1
7.590426000,0,0
7.639721000,1,0
7.640539000,0,1
7.640541000,0,0
7.689837000,1,0
7.690654000,0,0
7.690655000,0,1
7.690657000,0,0
7.739952000,1,0
7.740770000,0,1
7.740772000,0,0
7.790068000,1,0
7.790885000,0,0
7.790886000,0,1
7.790888000,0,0
7.840183000,1,0
7.841001000,0,1
7.841003000,0,0
7.890299000,1,0
7.891116000,0,0
7.891117000,0,1
7.891119000,0,0
7.940414000,1,0
7.941232000,0,1
7.941234000,0,0
7.990530000,1,0
7.991347000,0,0
7.991348000,0,1
7.991350000,0,0
8.040645000,1,0
8.041463000,0,1
8.041465000,0,0
8.090761000,1,0
8.091578000,0,0
8.091579000,0,1
8.091581000,0,0
8.140876000,1,0
8.141694000,0,1
8.141696000,0,0
8.190992000,1,0
8.191809000,0,0
8.191810000,0,1
8.191812000,0,0
8.241107000,1,0
8.241925000,0,1
8.241927000,0,0
8.291223000,1,0
8.292040000,0,0
8.292041000,0,1
8.292043000,0,0
8.341338000,1,0
8.342156000,0,1
8.342158000,0,0
8.391454000,1,0
8.392271000,0,0
8.392272000,0,1
8.392274000,0,0
8.441569000,1,0
8.442387000,0,1
8.442389000,0,0
8.491685000,1,0
8.492502000,0,0
8.492503000,0,1
8.492505000,0,0
8.541800000,1,0
8.542618000,0,1
8.542620000,0,0
8.591916000,1,0
8.592733000,0,0
8.592734000,0,1
8.592736000,0,0
8.642031000,1,0
8.642849000,0,1
8.642851000,0,0
8.692147000,1,0
8.692964000,0,0
8.692965000,0,1
8.692967000,0,0
8.742262000,1,0
8.743080000,0,1
8.743082000,0,0
8.792378000,1,0
8.793195000,0,0
8.793196000,0,1
8.793198000,0,0
8.842493000,1,0
8.843311000,0,1
8.843313000,0,0
8.892609000,1,0
8.893426000,0,0
8.893427000,0,1
8.893429000,0,0
8.942724000,1,0
8.943542000,0,1
8.943544000,0,0
8.992840000,1,0
8.993657000,0,0
8.993658000,0,1
8.993660000,0,0
9.042955000,1,0
9.043773000,0,1
9.043775000,0,0
9.093071000,1,0
9.093888000,0,0
9.093889000,0,1
9.093891000,0,0
9.143186000,1,0
9.144004000,0,1
9.144006000,0,0
9.193302000,1,0
9.194119000,0,0
9.194120000,0,1
9.194122000,0,0
9.243417000,1,0
9.244235000,0,1
9.244237000,0,0
9.293533000,1,0
9.294350000,0,0
9.294351000,0,1
9.294353000,0,0
9.343648000,1,0
9.344466000,0,1
9.344468000,0,0
9.393764000,1,0
9.394581000,0,0
9.394582000,0,1
9.394584000,0,0
9.443879000,1,0
9.444697000,0,1
9.444699000,0,0
9.493995000,1,0
9.494812000,0,0
9.494813000,0,1
9.494815000,0,0
9.544110000,1,0
9.544928000,0,1
9.544930000,0,0
9.594226000,1,0
9.595043000,0,0
9.595044000,0,1
9.595046000,0,0
9.644341000,1,0
9.645159000,0,1
9.645161000,0,0
9.694457000,1,0
9.695274000,0,0
9.695275000,0,1
9.695277000,0,0
9.744572000,1,0
9.745390000,0,1
9.745392000,0,0
9.794688000,1,0
9.795505000,0,0
9.795506000,0,1
9.795508000,0,0
9.844803000,1,0
9.845621000,0,1
9.845623000,0,0
9.894919000,1,0
9.895736000,0,0
9.895737000,0,1
9.895739000,0,0
9.945034000,1,0
9.945852000,0,1
9.945854000,0,0
9.995150000,1,0
9.995967000,0,0
9.995968000,0,1
9.995970000,0,0
10.045265000,1,0
10.046083000,0,1
10.046085000,0,0
10.095381000,1,0
10.096198000,0,0
10.096199000,0,1
10.096201000,0,0
10.145496000,1,0
10.146314000,0,1
10.146316000,0,0
10.195612000,1,0
10.196429000,0,0
10.196430000,0,1
10.196432000,0,0
10.245727000,1,0
10.246545000,0,1
10.246547000,0,0
10.295843000,1,0
10.296660000,0,0
10.296661000,0,1
10.296663000,0,0
10.345958000,1,0
10.346776000,0,1
10.346778000,0,0
10.396074000,1,0
10.396891000,0,0
10.396892000,0,1
10.396894000,0,0
10.446189000,1,0
10.447007000,0,1
10.447009000,0,0
10.496305000,1,0
10.497122000,0,0
10.497123000,0,1
10.497125000,0,0
10.546420000,1,0
10.547238000,0,1
10.547240000,0,0
10.596536000,1,0
10.597353000,0,0
10.597354000,0,1
10.597355000,0,0
10.646651000,1,0
10.647469000,0,1
10.647471000,0,0
10.696767000,1,0
10.697584000,0,0
10.697585000,0,1
10.697587000,0,0
10.746882000,1,0
10.747700000,0,1
10.747702000,0,0
10.796998000,1,0
10.797815000,0,0
10.797816000,0,1
10.797818000,0,0
10.847113000,1,0
10.847931000,0,1
10.847933000,0,0
10.897229000,1,0
10.898046000,0,0
10.898047000,0,1
10.898048000,0,0
10.947344000,1,0
10.948162000,0,1
10.948164000,0,0
10.997460000,1,0
10.998277000,0,0
10.998278000,0,1
10.998279000,0,0
11.047575000,1,0
11.048393000,0,1
11.048395000,0,0
11.097691000,1,0
11.098508000,0,0
11.098509000,0,1
11.098510000,0,0
11.147806000,1,0
11.148624000,0,1
11.148626000,0,0
11.197922000,1,0
11.198739000,0,0
11.198740000,0,1
11.198741000,0,0
11.248037000,1,0
11.248855000,0,1
11.248857000,0,0
11.298153000,1,0
11.298970000,0,0
11.298971000,0,1
11.298972000,0,0
11.348268000,1,0
11.349086000,0,1
11.349088000,0,0
11.398384000,1,0
11.399201000,0,0
11.399202000,0,1
11.399203000,0,0
11.448499000,1,0
11.449317000,0,1
11.449319000,0,0
11.498615000,1,0
11.499432000,0,0
11.499433000,0,1
11.499434000,0,0
11.548730000,1,0
11.549548000,0,1
11.549550000,0,0
11.598846000,1,0
11.599663000,0,0
11.599664000,0,1
11.599665000,0,0
11.648961000,1,0
11.649779000,0,1
11.649781000,0,0
11.699077000,1,0
11.699894000,0,0
11.699895000,0,1
11.699896000,0,0
11.749192000,1,0
11.750010000,0,1
11.750012000,0,0
11.799308000,1,0
11.800125000,0,0
11.800126000,0,1
11.800127000,0,0
11.849423000,1,0
11.850241000,0,1
11.850243000,0,0
11.899539000,1,0
11.900356000,0,0
11.900357000,0,1
11.900358000,0,0
11.949654000,1,0
11.950472000,0,1
11.950474000,0,0
11.980800000,0,0
