Time [s],Channel 0,Channel 1,Channel 2,Channel 7
0.000000000,1,0,0,0
0.002796000,0,0,0,0
0.002820000,0,0,1,0
0.012799000,0,0,0,0
0.012822000,1,0,0,0
0.022802000,0,0,0,0
0.022825000,0,1,0,0
0.032804000,0,0,0,0
0.032828000,1,0,0,0
0.042808000,0,0,0,0
0.042831000,0,1,0,0
0.052811000,0,0,0,0
0.052834000,1,0,0,0
0.062813000,0,0,0,0
0.062837000,0,0,1,0
0.072816000,0,0,0,0
0.072839000,1,0,0,0
0.082818000,0,0,0,0
0.082842000,0,1,0,0
0.092822000,0,0,0,0
0.092845000,1,0,0,0
0.102824000,0,0,0,0
0.102848000,0,1,0,0
0.112827000,0,0,0,0
0.112850000,1,0,0,0
0.122829000,0,0,0,0
0.122853000,0,0,1,0
0.132832000,0,0,0,0
0.132856000,1,0,0,0
0.142835000,0,0,0,0
0.142858000,0,1,0,0
0.152837000,0,0,0,0
0.152861000,1,0,0,0
0.162841000,0,0,0,0
0.162865000,0,1,0,0
0.172844000,0,0,0,0
0.172867000,1,0,0,0
0.182846000,0,0,0,0
0.182870000,0,0,1,0
0.192848000,0,0,0,0
0.192872000,1,0,0,0
0.202852000,0,0,0,0
0.202876000,0,1,0,0
0.212855000,0,0,0,0
0.212878000,1,0,0,0
0.222857000,0,0,0,0
0.222881000,0,1,0,0
0.232860000,0,0,0,0
0.232883000,1,0,0,0
0.242863000,0,0,0,0
0.242886000,0,0,1,0
0.252865000,0,0,0,0
0.252889000,1,0,0,0
0.262868000,0,0,0,0
0.262891000,0,1,0,0
0.272870000,0,0,0,0
0.272894000,1,0,0,0
0.282874000,0,0,0,0
0.282898000,0,1,0,0
0.292876000,0,0,0,0
0.292900000,1,0,0,0
0.302879000,0,0,0,0
0.302903000,0,0,1,0
0.312882000,0,0,0,0
0.312905000,1,0,0,0
0.322885000,0,0,0,0
0.322909000,0,1,0,0
0.332888000,0,0,0,0
0.332912000,1,0,0,0
0.342891000,0,0,0,0
0.342914000,0,1,0,0
0.352893000,0,0,0,0
0.352917000,1,0,0,0
0.362896000,0,0,0,0
0.362919000,0,0,1,0
0.372898000,0,0,0,0
0.372922000,1,0,0,0
0.382901000,0,0,0,0
0.382924000,0,1,0,0
0.392905000,0,0,0,0
0.392928000,1,0,0,0
0.402907000,0,0,0,0
0.402931000,0,1,0,0
0.412910000,0,0,0,0
0.412933000,1,0,0,0
0.422912000,0,0,0,0
0.422936000,0,0,1,0
0.432915000,0,0,0,0
0.432938000,1,0,0,0
0.442917000,0,0,0,0
0.442941000,0,1,0,0
0.452921000,0,0,0,0
0.452945000,1,0,0,0
0.462924000,0,0,0,0
0.462947000,0,1,0,0
0.472926000,0,0,0,0
0.472950000,1,0,0,0
0.482929000,0,0,0,0
0.482952000,0,0,1,0
0.492931000,0,0,0,0
0.492955000,1,0,0,0
0.502935000,0,0,0,0
0.502959000,0,1,0,0
0.512938000,0,0,0,0
0.512961000,1,0,0,0
0.522940000,0,0,0,0
0.522964000,0,1,0,0
0.532943000,0,0,0,0
0.532966000,1,0,0,0
0.542945000,0,0,0,0
0.542969000,0,0,1,0
0.552948000,0,0,0,0
0.552972000,1,0,0,0
0.562951000,0,0,0,0
0.562974000,0,1,0,0
0.572953000,0,0,0,0
0.572977000,1,0,0,0
0.582957000,0,0,0,0
0.582981000,0,1,0,0
0.592960000,0,0,0,0
0.592983000,1,0,0,0
0.602962000,0,0,0,0
0.602986000,0,0,1,0
0.612965000,0,0,0,0
0.612988000,1,0,0,0
0.622967000,0,0,0,0
0.622991000,0,1,0,0
0.632971000,0,0,0,0
0.632995000,1,0,0,0
0.642974000,0,0,0,0
0.642997000,0,1,0,0
0.652976000,0,0,0,0
0.653000000,1,0,0,0
0.662979000,0,0,0,0
0.663002000,0,0,1,0
0.672981000,0,0,0,0
0.673005000,1,0,0,0
0.682984000,0,0,0,0
0.683007000,0,1,0,0
0.692988000,0,0,0,0
0.693011000,1,0,0,0
0.702990000,0,0,0,0
0.703014000,0,1,0,0
0.712993000,0,0,0,0
0.713016000,1,0,0,0
0.722995000,0,0,0,0
0.723019000,0,0,1,0
0.732998000,0,0,0,0
0.733022000,1,0,0,0
0.743001000,0,0,0,0
0.743024000,0,1,0,0
0.753003000,0,0,0,0
0.753027000,1,0,0,0
0.763007000,0,0,0,0
0.763031000,0,1,0,0
0.773010000,0,0,0,0
0.773033000,1,0,0,0
0.783012000,0,0,0,0
0.783036000,0,0,1,0
0.793015000,0,0,0,0
0.793038000,1,0,0,0
0.803017000,0,0,0,0
0.803041000,0,1,0,0
0.813020000,0,0,0,0
0.813043000,1,0,0,0
0.823022000,0,0,0,0
0.823046000,0,1,0,0
0.833026000,0,0,0,0
0.833050000,1,0,0,0
0.843029000,0,0,0,0
0.843053000,0,0,1,0
0.853032000,0,0,0,0
0.853055000,1,0,0,0
0.863034000,0,0,0,0
0.863058000,0,1,0,0
0.873037000,0,0,0,0
0.873060000,1,0,0,0
0.883039000,0,0,0,0
0.883063000,0,1,0,0
0.893042000,0,0,0,0
0.893065000,1,0,0,0
0.903046000,0,0,0,0
0.903069000,0,0,1,0
0.913048000,0,0,0,0
0.913072000,1,0,0,0
0.923051000,0,0,0,0
0.923074000,0,1,0,0
0.933053000,0,0,0,0
0.933077000,1,0,0,0
0.943056000,0,0,0,0
0.943080000,0,1,0,0
0.953059000,0,0,0,0
0.953082000,1,0,0,0
0.963061000,0,0,0,0
0.963085000,0,0,1,0
0.973064000,0,0,0,0
0.973087000,1,0,0,0
0.983068000,0,0,0,0
0.983091000,0,1,0,0
0.993070000,0,0,0,0
0.993093000,1,0,0,0
1.003072000,0,0,0,0
1.003096000,0,1,0,0
1.013076000,0,0,0,0
1.013100000,1,0,0,0
1.023079000,0,0,0,0
1.023102000,0,0,1,0
1.033081000,0,0,0,0
1.033105000,1,0,0,0
1.043084000,0,0,0,0
1.043107000,0,1,0,0
1.053087000,0,0,0,0
1.053110000,1,0,0,0
1.063089000,0,0,0,0
1.063113000,0,1,0,0
1.073092000,0,0,0,0
1.073115000,1,0,0,0
1.083095000,0,0,0,0
1.083118000,0,0,1,0
1.093098000,0,0,0,0
1.093121000,1,0,0,0
1.103100000,0,0,0,0
1.103124000,0,1,0,0
1.113103000,0,0,0,0
1.113126000,1,0,0,0
1.123105000,0,0,0,0
1.123129000,0,1,0,0
1.133109000,0,0,0,0
1.133133000,1,0,0,0
1.143112000,0,0,0,0
1.143135000,0,0,1,0
1.153115000,0,0,0,0
1.153138000,1,0,0,0
1.163117000,0,0,0,0
1.163141000,0,1,0,0
1.173120000,0,0,0,0
1.173143000,1,0,0,0
1.183123000,0,0,0,0
1.183147000,0,1,0,0
1.193126000,0,0,0,0
1.193149000,1,0,0,0
1.203128000,0,0,0,0
1.203152000,0,0,1,0
1.213131000,0,0,0,0
1.213154000,1,0,0,0
1.223133000,0,0,0,0
1.223157000,0,1,0,0
1.233136000,0,0,0,0
1.233160000,1,0,0,0
1.243139000,0,0,0,0
1.243162000,0,1,0,0
1.253142000,0,0,0,0
1.253166000,1,0,0,0
1.263145000,0,0,0,0
1.263169000,0,0,1,0
1.273148000,0,0,0,0
1.273171000,1,0,0,0
1.283150000,0,0,0,0
1.283174000,0,1,0,0
1.293153000,0,0,0,0
1.293176000,1,0,0,0
1.303156000,0,0,0,0
1.303180000,0,1,0,0
1.313159000,0,0,0,0
1.313182000,1,0,0,0
1.323161000,0,0,0,0
1.323185000,0,0,1,0
1.333164000,0,0,0,0
1.333188000,1,0,0,0
1.343167000,0,0,0,0
1.343190000,0,1,0,0
1.353169000,0,0,0,0
1.353193000,1,0,0,0
1.363172000,0,0,0,0
1.363195000,0,1,0,0
1.373176000,0,0,0,0
1.373199000,1,0,0,0
1.383178000,0,0,0,0
1.383201000,0,0,1,0
1.393181000,0,0,0,0
1.393204000,1,0,0,0
1.403183000,0,0,0,0
1.403207000,0,1,0,0
1.413186000,0,0,0,0
1.413209000,1,0,0,0
1.423188000,0,0,0,0
1.423212000,0,1,0,0
1.433192000,0,0,0,0
1.433216000,1,0,0,0
1.443195000,0,0,0,0
1.443218000,0,0,1,0
1.453197000,0,0,0,0
1.453221000,1,0,0,0
1.463200000,0,0,0,0
1.463223000,0,1,0,0
1.473202000,0,0,0,0
1.473226000,1,0,0,0
1.483205000,0,0,0,0
1.483228000,0,1,0,0
1.493209000,0,0,0,0
1.493232000,1,0,0,0
1.503211000,0,0,0,0
1.503235000,0,0,1,0
1.513214000,0,0,0,0
1.513237000,1,0,0,0
1.523217000,0,0,0,0
1.523240000,0,1,0,0
1.533219000,0,0,0,0
1.533243000,1,0,0,0
1.543222000,0,0,0,0
1.543245000,0,1,0,0
1.553224000,0,0,0,0
1.553248000,1,0,0,0
1.563228000,0,0,0,0
1.563252000,0,0,1,0
1.573231000,0,0,0,0
1.573254000,1,0,0,0
1.583234000,0,0,0,0
1.583257000,0,1,0,0
1.593236000,0,0,0,0
1.593259000,1,0,0,0
1.603238000,0,0,0,0
1.603262000,0,1,0,0
1.613242000,0,0,0,0
1.613266000,1,0,0,0
1.623245000,0,0,0,0
1.623268000,0,0,1,0
1.633247000,0,0,0,0
1.633271000,1,0,0,0
1.643250000,0,0,0,0
1.643273000,0,1,0,0
1.653252000,0,0,0,0
1.653276000,1,0,0,0
1.663255000,0,0,0,0
1.663278000,0,1,0,0
1.673258000,0,0,0,0
1.673281000,1,0,0,0
1.683261000,0,0,0,0
1.683285000,0,0,1,0
1.693264000,0,0,0,0
1.693287000,1,0,0,0
1.703267000,0,0,0,0
1.703290000,0,1,0,0
1.713269000,0,0,0,0
1.713293000,1,0,0,0
1.723272000,0,0,0,0
1.723295000,0,1,0,0
1.733274000,0,0,0,0
1.733298000,1,0,0,0
1.743278000,0,0,0,0
1.743302000,0,0,1,0
1.753281000,0,0,0,0
1.753304000,1,0,0,0
1.763283000,0,0,0,0
1.763307000,0,1,0,0
1.773286000,0,0,0,0
1.773309000,1,0,0,0
1.783289000,0,0,0,0
1.783312000,0,1,0,0
1.793291000,0,0,0,0
1.793314000,1,0,0,0
1.803293000,0,0,0,0
1.803317000,0,0,1,0
1.813297000,0,0,0,0
1.813321000,1,0,0,0
1.823300000,0,0,0,0
1.823323000,0,1,0,0
1.833303000,0,0,0,0
1.833326000,1,0,0,0
1.843305000,0,0,0,0
1.843329000,0,1,0,0
1.853308000,0,0,0,0
1.853331000,1,0,0,0
1.863310000,0,0,0,0
1.863334000,0,0,1,0
1.873313000,0,0,0,0
1.873336000,1,0,0,0
1.883316000,0,0,0,0
1.883340000,0,1,0,0
1.893319000,0,0,0,0
1.893343000,1,0,0,0
1.903322000,0,0,0,0
1.903345000,0,1,0,0
1.913324000,0,0,0,0
1.913348000,1,0,0,0
1.923327000,0,0,0,0
1.923350000,0,0,1,0
1.933329000,0,0,0,0
1.933353000,1,0,0,0
1.943333000,0,0,0,0
1.943357000,0,1,0,0
1.953336000,0,0,0,0
1.953359000,1,0,0,0
1.963338000,0,0,0,0
1.963362000,0,1,0,0
1.973341000,0,0,0,0
1.973365000,1,0,0,0
1.983343000,0,0,0,0
1.983367000,0,0,1,0
1.993346000,0,0,0,0
1.993370000,1,0,0,0
2.003349000,0,0,0,0
2.003372000,0,1,0,0
2.013353000,0,0,0,0
2.013376000,1,0,0,0
2.023355000,0,0,0,0
2.023379000,0,1,0,0
2.033358000,0,0,0,0
2.033381000,1,0,0,0
2.043360000,0,0,0,0
2.043384000,0,0,1,0
2.053363000,0,0,0,0
2.053386000,1,0,0,0
2.063365000,0,0,0,0
2.063389000,0,1,0,0
2.073368000,0,0,0,0
2.073392000,1,0,0,0
2.083372000,0,0,0,0
2.083395000,0,1,0,0
2.093374000,0,0,0,0
2.093398000,1,0,0,0
2.103377000,0,0,0,0
2.103400000,0,0,1,0
2.113379000,0,0,0,0
2.113403000,1,0,0,0
2.123383000,0,0,0,0
2.123407000,0,1,0,0
2.133386000,0,0,0,0
2.133409000,1,0,0,0
2.143388000,0,0,0,0
2.143412000,0,1,0,0
2.153391000,0,0,0,0
2.153414000,1,0,0,0
2.163393000,0,0,0,0
2.163417000,0,0,1,0
2.173396000,0,0,0,0
2.173419000,1,0,0,0
2.183399000,0,0,0,0
2.183423000,0,1,0,0
2.193402000,0,0,0,0
2.193426000,1,0,0,0
2.203405000,0,0,0,0
2.203428000,0,1,0,0
2.213407000,0,0,0,0
2.213431000,1,0,0,0
2.223410000,0,0,0,0
2.223433000,0,0,1,0
2.233412000,0,0,0,0
2.233436000,1,0,0,0
2.243416000,0,0,0,0
2.243440000,0,1,0,0
2.253419000,0,0,0,0
2.253442000,1,0,0,0
2.263421000,0,0,0,0
2.263445000,0,1,0,0
2.273424000,0,0,0,0
2.273447000,1,0,0,0
2.283426000,0,0,0,0
2.283450000,0,0,1,0
2.293430000,0,0,0,0
2.293454000,1,0,0,0
2.303433000,0,0,0,0
2.303456000,0,1,0,0
2.313435000,0,0,0,0
2.313459000,1,0,0,0
2.323438000,0,0,0,0
2.323461000,0,1,0,0
2.333440000,0,0,0,0
2.333464000,1,0,0,0
2.343443000,0,0,0,0
2.343466000,0,0,1,0
2.353445000,0,0,0,0
2.353469000,1,0,0,0
2.363449000,0,0,0,0
2.363473000,0,1,0,0
2.373452000,0,0,0,0
2.373475000,1,0,0,0
2.383455000,0,0,0,0
2.383478000,0,1,0,0
2.393457000,0,0,0,0
2.393480000,1,0,0,0
2.403461000,0,0,0,0
2.403484000,0,0,1,0
2.413463000,0,0,0,0
2.413487000,1,0,0,0
2.423466000,0,0,0,0
2.423489000,0,1,0,0
2.433468000,0,0,0,0
2.433492000,1,0,0,0
2.443471000,0,0,0,0
2.443494000,0,1,0,0
2.453473000,0,0,0,0
2.453497000,1,0,0,0
2.463476000,0,0,0,0
2.463500000,0,0,1,0
2.473479000,0,0,0,0
2.473502000,1,0,0,0
2.483482000,0,0,0,0
2.483506000,0,1,0,0
2.493485000,0,0,0,0
2.493508000,1,0,0,0
2.503487000,0,0,0,0
2.503511000,0,1,0,0
2.513490000,0,0,0,0
2.513513000,1,0,0,0
2.523493000,0,0,0,0
2.523516000,0,0,1,0
2.533495000,0,0,0,0
2.533519000,1,0,0,0
2.543499000,0,0,0,0
2.543523000,0,1,0,0
2.553502000,0,0,0,0
2.553525000,1,0,0,0
2.563504000,0,0,0,0
2.563528000,0,1,0,0
2.573507000,0,0,0,0
2.573530000,1,0,0,0
2.583509000,0,0,0,0
2.583533000,0,0,1,0
2.593513000,0,0,0,0
2.593537000,1,0,0,0
2.603516000,0,0,0,0
2.603539000,0,1,0,0
2.613518000,0,0,0,0
2.613542000,1,0,0,0
2.623521000,0,0,0,0
2.623544000,0,1,0,0
2.633523000,0,0,0,0
2.633547000,1,0,0,0
2.643526000,0,0,0,0
2.643549000,0,0,1,0
2.653528000,0,0,0,0
2.653552000,1,0,0,0
2.663532000,0,0,0,0
2.663556000,0,1,0,0
2.673535000,0,0,0,0
2.673558000,1,0,0,0
2.683538000,0,0,0,0
2.683562000,0,1,0,0
2.693540000,0,0,0,0
2.693563000,1,0,0,0
2.703542000,0,0,0,0
2.703566000,0,0,1,0
2.713545000,0,0,0,0
2.713569000,1,0,0,0
2.723549000,0,0,0,0
2.723573000,0,1,0,0
2.733552000,0,0,0,0
2.733575000,1,0,0,0
2.743554000,0,0,0,0
2.743578000,0,1,0,0
2.753557000,0,0,0,0
2.753580000,1,0,0,0
2.763559000,0,0,0,0
2.763583000,0,0,1,0
2.773562000,0,0,0,0
2.773585000,1,0,0,0
2.783565000,0,0,0,0
2.783589000,0,1,0,0
2.793568000,0,0,0,0
2.793592000,1,0,0,0
2.803571000,0,0,0,0
2.803594000,0,1,0,0
2.813573000,0,0,0,0
2.813597000,1,0,0,0
2.823576000,0,0,0,0
2.823599000,0,0,1,0
2.833579000,0,0,0,0
2.833602000,1,0,0,0
2.843581000,0,0,0,0
2.843605000,0,1,0,0
2.853585000,0,0,0,0
2.853608000,1,0,0,0
2.863587000,0,0,0,0
2.863611000,0,1,0,0
2.873590000,0,0,0,0
2.873614000,1,0,0,0
2.883593000,0,0,0,0
2.883616000,0,0,1,0
2.893595000,0,0,0,0
2.893619000,1,0,0,0
2.903598000,0,0,0,0
2.903621000,0,1,0,0
2.913602000,0,0,0,0
2.913625000,1,0,0,0
2.923604000,0,0,0,0
2.923628000,0,1,0,0
2.933607000,0,0,0,0
2.933630000,1,0,0,0
2.943609000,0,0,0,0
2.943633000,0,0,1,0
2.953612000,0,0,0,0
2.953635000,1,0,0,0
2.963614000,0,0,0,0
2.963638000,0,1,0,0
2.973617000,0,0,0,0
2.973640000,1,0,0,0
2.983620000,0,0,0,0
2.983644000,0,1,0,0
2.993623000,0,0,0,0
2.993647000,1,0,0,0
3.003626000,0,0,0,0
3.003650000,0,0,1,0
3.013629000,0,0,0,0
3.013652000,1,0,0,0
3.023631000,0,0,0,0
3.023655000,0,1,0,0
3.033634000,0,0,0,0
3.033657000,1,0,0,0
3.043636000,0,0,0,0
3.043660000,0,1,0,0
3.053640000,0,0,0,0
3.053664000,1,0,0,0
3.063643000,0,0,0,0
3.063666000,0,0,1,0
3.073645000,0,0,0,0
3.073669000,1,0,0,0
3.083648000,0,0,0,0
3.083671000,0,1,0,0
3.093650000,0,0,0,0
3.093674000,1,0,0,0
3.103653000,0,0,0,0
3.103677000,0,1,0,0
3.113657000,0,0,0,0
3.113680000,1,0,0,0
3.123659000,0,0,0,0
3.123683000,0,0,1,0
3.133662000,0,0,0,0
3.133686000,1,0,0,0
3.143665000,0,0,0,0
3.143688000,0,1,0,0
3.153667000,0,0,0,0
3.153691000,1,0,0,0
3.163670000,0,0,0,0
3.163693000,0,1,0,0
3.173672000,0,0,0,0
3.173696000,1,0,0,0
3.183676000,0,0,0,0
3.183700000,0,0,1,0
3.193678000,0,0,0,0
3.193702000,1,0,0,0
3.203681000,0,0,0,0
3.203704000,0,1,0,0
3.213683000,0,0,0,0
3.213707000,1,0,0,0
3.223686000,0,0,0,0
3.223710000,0,1,0,0
3.233690000,0,0,0,0
3.233713000,1,0,0,0
3.243692000,0,0,0,0
3.243716000,0,0,1,0
3.253695000,0,0,0,0
3.253719000,1,0,0,0
3.263698000,0,0,0,0
3.263721000,0,1,0,0
3.273700000,0,0,0,0
3.273724000,1,0,0,0
3.283703000,0,0,0,0
3.283727000,0,1,0,0
3.293706000,0,0,0,0
3.293730000,1,0,0,0
3.303709000,0,0,0,0
3.303732000,0,0,1,0
3.313711000,0,0,0,0
3.313735000,1,0,0,0
3.323714000,0,0,0,0
3.323738000,0,1,0,0
3.333717000,0,0,0,0
3.333740000,1,0,0,0
3.343720000,0,0,0,0
3.343744000,0,1,0,0
3.353723000,0,0,0,0
3.353746000,1,0,0,0
3.363726000,0,0,0,0
3.363749000,0,0,1,0
3.373728000,0,0,0,0
3.373752000,1,0,0,0
3.383731000,0,0,0,0
3.383754000,0,1,0,0
3.393734000,0,0,0,0
3.393758000,1,0,0,0
3.403737000,0,0,0,0
3.403760000,0,1,0,0
3.413739000,0,0,0,0
3.413763000,1,0,0,0
3.423742000,0,0,0,0
3.423766000,0,0,1,0
3.433745000,0,0,0,0
3.433768000,1,0,0,0
3.443747000,0,0,0,0
3.443771000,0,1,0,0
3.453750000,0,0,0,0
3.453773000,1,0,0,0
3.463754000,0,0,0,0
3.463777000,0,1,0,0
3.473756000,0,0,0,0
3.473780000,1,0,0,0
3.483759000,0,0,0,0
3.483783000,0,0,1,0
3.493761000,0,0,0,0
3.493785000,1,0,0,0
3.503764000,0,0,0,0
3.503787000,0,1,0,0
3.513768000,0,0,0,0
3.513791000,1,0,0,0
3.523770000,0,0,0,0
3.523794000,0,1,0,0
3.533773000,0,0,0,0
3.533796000,1,0,0,0
3.543775000,0,0,0,0
3.543799000,0,0,1,0
3.553778000,0,0,0,0
3.553801000,1,0,0,0
3.563780000,0,0,0,0
3.563804000,0,1,0,0
3.573783000,0,0,0,0
3.573806000,1,0,0,0
3.583786000,0,0,0,0
3.583810000,0,1,0,0
3.593789000,0,0,0,0
3.593813000,1,0,0,0
3.603792000,0,0,0,0
3.603815000,0,0,1,0
3.613794000,0,0,0,0
3.613818000,1,0,0,0
3.623797000,0,0,0,0
3.623820000,0,1,0,0
3.633799000,0,0,0,0
3.633823000,1,0,0,0
3.643803000,0,0,0,0
3.643827000,0,1,0,0
3.653806000,0,0,0,0
3.653829000,1,0,0,0
3.663808000,0,0,0,0
3.663832000,0,0,1,0
3.673811000,0,0,0,0
3.673834000,1,0,0,0
3.683814000,0,0,0,0
3.683837000,0,1,0,0
3.693817000,0,0,0,0
3.693841000,1,0,0,0
3.703820000,0,0,0,0
3.703843000,0,1,0,0
3.713822000,0,0,0,0
3.713846000,1,0,0,0
3.723825000,0,0,0,0
3.723849000,0,0,1,0
3.733828000,0,0,0,0
3.733851000,1,0,0,0
3.743830000,0,0,0,0
3.743854000,0,1,0,0
3.753833000,0,0,0,0
3.753856000,1,0,0,0
3.763835000,0,0,0,0
3.763859000,0,1,0,0
3.773839000,0,0,0,0
3.773863000,1,0,0,0
3.783841000,0,0,0,0
3.783865000,0,0,1,0
3.793844000,0,0,0,0
3.793868000,1,0,0,0
3.803847000,0,0,0,0
3.803870000,0,1,0,0
3.813849000,0,0,0,0
3.813873000,1,0,0,0
3.823853000,0,0,0,0
3.823877000,0,1,0,0
3.833856000,0,0,0,0
3.833879000,1,0,0,0
3.843858000,0,0,0,0
3.843882000,0,0,1,0
3.853861000,0,0,0,0
3.853884000,1,0,0,0
3.863863000,0,0,0,0
3.863887000,0,1,0,0
3.873866000,0,0,0,0
3.873890000,1,0,0,0
3.883870000,0,0,0,0
3.883893000,0,1,0,0
3.893872000,0,0,0,0
3.893896000,1,0,0,0
3.903875000,0,0,0,0
3.903898000,0,0,1,0
3.913878000,0,0,0,0
3.913901000,1,0,0,0
3.923880000,0,0,0,0
3.923904000,0,1,0,0
3.933883000,0,0,0,0
3.933906000,1,0,0,0
3.943885000,0,0,0,0
3.943909000,0,1,0,0
3.953889000,0,0,0,0
3.953913000,1,0,0,0
3.963892000,0,0,0,0
3.963915000,0,0,1,0
3.973894000,0,0,0,0
3.973918000,1,0,0,0
3.983897000,0,0,0,0
3.983920000,0,1,0,0
3.993899000,0,0,0,0
3.993923000,1,0,0,0
4.003902000,0,0,0,0
4.003925000,0,1,0,0
4.013906000,0,0,0,0
4.013929000,1,0,0,0
4.023908000,0,0,0,0
4.023932000,0,0,1,0
4.033911000,0,0,0,0
4.033934000,1,0,0,0
4.043913000,0,0,0,0
4.043937000,0,1,0,0
4.053916000,0,0,0,0
4.053939000,1,0,0,0
4.063918000,0,0,0,0
4.063942000,0,1,0,0
4.073921000,0,0,0,0
4.073944000,1,0,0,0
4.083925000,0,0,0,0
4.083948000,0,0,1,0
4.093927000,0,0,0,0
4.093951000,1,0,0,0
4.103930000,0,0,0,0
4.103954000,0,1,0,0
4.113933000,0,0,0,0
4.113956000,1,0,0,0
4.123935000,0,0,0,0
4.123959000,0,1,0,0
4.133938000,0,0,0,0
4.133961000,1,0,0,0
4.143942000,0,0,0,0
4.143965000,0,0,1,0
4.153944000,0,0,0,0
4.153968000,1,0,0,0
4.163947000,0,0,0,0
4.163970000,0,1,0,0
4.173949000,0,0,0,0
4.173973000,1,0,0,0
4.183953000,0,0,0,0
4.183976000,0,1,0,0
4.193955000,0,0,0,0
4.193979000,1,0,0,0
4.203958000,0,0,0,0
4.203981000,0,0,1,0
4.213960000,0,0,0,0
4.213984000,1,0,0,0
4.223963000,0,0,0,0
4.223986000,0,1,0,0
4.233965000,0,0,0,0
4.233989000,1,0,0,0
4.243968000,0,0,0,0
4.243991000,0,1,0,0
4.253972000,0,0,0,0
4.253995000,1,0,0,0
4.263974000,0,0,0,0
4.263998000,0,0,1,0
4.273977000,0,0,0,0
4.274001000,1,0,0,0
4.283980000,0,0,0,0
4.284004000,0,1,0,0
4.293983000,0,0,0,0
4.294006000,1,0,0,0
4.303986000,0,0,0,0
4.304009000,0,1,0,0
4.313988000,0,0,0,0
4.314012000,1,0,0,0
4.323991000,0,0,0,0
4.324014000,0,0,1,0
4.333993000,0,0,0,0
4.334017000,1,0,0,0
4.343996000,0,0,0,0
4.344019000,0,1,0,0
4.353998000,0,0,0,0
4.354022000,1,0,0,0
4.364002000,0,0,0,0
4.364026000,0,1,0,0
4.374005000,0,0,0,0
4.374028000,1,0,0,0
4.384007000,0,0,0,0
4.384030000,0,0,1,0
4.394010000,0,0,0,0
4.394033000,1,0,0,0
4.404013000,0,0,0,0
4.404037000,0,1,0,0
4.414016000,0,0,0,0
4.414039000,1,0,0,0
4.424019000,0,0,0,0
4.424042000,0,1,0,0
4.434021000,0,0,0,0
4.434045000,1,0,0,0
4.444024000,0,0,0,0
4.444047000,0,0,1,0
4.454026000,0,0,0,0
4.454050000,1,0,0,0
4.464029000,0,0,0,0
4.464052000,0,1,0,0
4.474033000,0,0,0,0
4.474056000,1,0,0,0
4.484035000,0,0,0,0
4.484058000,0,1,0,0
4.494037000,0,0,0,0
4.494061000,1,0,0,0
4.504040000,0,0,0,0
4.504064000,0,0,1,0
4.514044000,0,0,0,0
4.514067000,1,0,0,0
4.524046000,0,0,0,0
4.524070000,0,1,0,0
4.534049000,0,0,0,0
4.534073000,1,0,0,0
4.544052000,0,0,0,0
4.544075000,0,1,0,0
4.554054000,0,0,0,0
4.554078000,1,0,0,0
4.564057000,0,0,0,0
4.564080000,0,0,1,0
4.574059000,0,0,0,0
4.574083000,1,0,0,0
4.584063000,0,0,0,0
4.584086000,0,1,0,0
4.594065000,0,0,0,0
4.594089000,1,0,0,0
4.604068000,0,0,0,0
4.604091000,0,1,0,0
4.614070000,0,0,0,0
4.614094000,1,0,0,0
4.624074000,0,0,0,0
4.624098000,0,0,1,0
4.634077000,0,0,0,0
4.634101000,1,0,0,0
4.644080000,0,0,0,0
4.644103000,0,1,0,0
4.654082000,0,0,0,0
4.654106000,1,0,0,0
4.664085000,0,0,0,0
4.664108000,0,1,0,0
4.674087000,0,0,0,0
4.674111000,1,0,0,0
4.684091000,0,0,0,0
4.684114000,0,0,1,0
4.694093000,0,0,0,0
4.694117000,1,0,0,0
4.704096000,0,0,0,0
4.704120000,0,1,0,0
4.714099000,0,0,0,0
4.714122000,1,0,0,0
4.724101000,0,0,0,0
4.724125000,0,1,0,0
4.734104000,0,0,0,0
4.734127000,1,0,0,0
4.744108000,0,0,0,0
4.744131000,0,0,1,0
4.754110000,0,0,0,0
4.754134000,1,0,0,0
4.764113000,0,0,0,0
4.764136000,0,1,0,0
4.774115000,0,0,0,0
4.774139000,1,0,0,0
4.784118000,0,0,0,0
4.784141000,0,1,0,0
4.794120000,0,0,0,0
4.794144000,1,0,0,0
4.804124000,0,0,0,0
4.804148000,0,0,1,0
4.814127000,0,0,0,0
4.814150000,1,0,0,0
4.824129000,0,0,0,0
4.824153000,0,1,0,0
4.834132000,0,0,0,0
4.834155000,1,0,0,0
4.844134000,0,0,0,0
4.844158000,0,1,0,0
4.854137000,0,0,0,0
4.854160000,1,0,0,0
4.864139000,0,0,0,0
4.864163000,0,0,1,0
4.874143000,0,0,0,0
4.874167000,1,0,0,0
4.884146000,0,0,0,0
4.884169000,0,1,0,0
4.894148000,0,0,0,0
4.894172000,1,0,0,0
4.904151000,0,0,0,0
4.904174000,0,1,0,0
4.914153000,0,0,0,0
4.914177000,1,0,0,0
4.924157000,0,0,0,0
4.924181000,0,0,1,0
4.934160000,0,0,0,0
4.934183000,1,0,0,0
4.944162000,0,0,0,0
4.944186000,0,1,0,0
4.954165000,0,0,0,0
4.954188000,1,0,0,0
4.964168000,0,0,0,0
4.964191000,0,1,0,0
4.974170000,0,0,0,0
4.974194000,1,0,0,0
