Time [s],Channel 0,Channel 1
0.000000000,0,0
0.002589000,1,0
0.003407000,0,0
0.003408000,0,1
0.003409000,0,0
0.052705000,1,0
0.053522000,0,0
0.053523000,0,1
0.053525000,0,0
0.102820000,1,0
0.103638000,0,0
0.103639000,0,1
0.103640000,0,0
0.152936000,1,0
0.153753000,0,0
0.153754000,0,1
0.153756000,0,0
0.203051000,1,0
0.203869000,0,0
0.203870000,0,1
0.203871000,0,0
0.253167000,1,0
0.253984000,0,0
0.253985000,0,1
0.253987000,0,0
0.303282000,1,0
0.304100000,0,0
0.304101000,0,1
0.304102000,0,0
0.353398000,1,0
0.354215000,0,0
0.354216000,0,1
0.354218000,0,0
0.403513000,1,0
0.404331000,0,0
0.404332000,0,1
0.404333000,0,0
0.453629000,1,0
0.454446000,0,0
0.454447000,0,1
0.454449000,0,0
0.503744000,1,0
0.504562000,0,1
0.504564000,0,0
0.553860000,1,0
0.554677000,0,0
0.554678000,0,1
0.554680000,0,0
0.603975000,1,0
0.604793000,0,1
0.604795000,0,0
0.654091000,1,0
0.654909000,0,1
0.654911000,0,0
0.704206000,1,0
0.705024000,0,1
0.705026000,0,0
0.754322000,1,0
0.755140000,0,1
0.755142000,0,0
0.804437000,1,0
0.805255000,0,0
0.805256000,0,1
0.805257000,0,0
0.854553000,1,0
0.855370000,0,0
0.855371000,0,1
0.855373000,0,0
0.904668000,1,0
0.905486000,0,0
0.905487000,0,1
0.905488000,0,0
0.954784000,1,0
0.955601000,0,0
0.955602000,0,1
0.955604000,0,0
1.004899000,1,0
1.005717000,0,0
1.005718000,0,1
1.005719000,0,0
1.055015000,1,0
1.055832000,0,0
1.055833000,0,1
1.055835000,0,0
1.105130000,1,0
1.105948000,0,0
1.105949000,0,1
1.105950000,0,0
1.155246000,1,0
1.156063000,0,0
1.156064000,0,1
1.156066000,0,0
1.205361000,1,0
1.206179000,0,0
1.206180000,0,1
1.206181000,0,0
1.255477000,1,0
1.256294000,0,0
1.256295000,0,1
1.256297000,0,0
1.305592000,1,0
1.306410000,0,0
1.306411000,0,1
1.306412000,0,0
1.355708000,1,0
1.356525000,0,0
1.356526000,0,1
1.356528000,0,0
1.405823000,1,0
1.406641000,0,1
1.406643000,0,0
1.455939000,1,0
1.456757000,0,1
1.456759000,0,0
1.506054000,1,0
1.506872000,0,1
1.506890000,0,0
1.556170000,1,0
1.556988000,0,1
1.556990000,0,0
1.606285000,1,0
1.607103000,0,1
1.607105000,0,0
1.656401000,1,0
1.657219000,0,1
1.657221000,0,0
1.706516000,1,0
1.707334000,0,0
1.707335000,0,1
1.707336000,0,0
1.756632000,1,0
1.757450000,0,1
1.757452000,0,0
1.806747000,1,0
1.807565000,0,0
1.807566000,0,1
1.807567000,0,0
1.856863000,1,0
1.857680000,0,0
1.857681000,0,1
1.857683000,0,0
1.906978000,1,0
1.907796000,0,0
1.907797000,0,1
1.907798000,0,0
1.957094000,1,0
1.957911000,0,0
1.957912000,0,1
1.957914000,0,0
2.007209000,1,0
2.008027000,0,0
2.008028000,0,1
2.008033000,0,0
2.057325000,1,0
2.058142000,0,0
2.058143000,0,1
2.058152000,0,0
2.107440000,1,0
2.108258000,0,1
2.108268000,0,0
2.157556000,1,0
2.158373000,0,0
2.158374000,0,1
2.158380000,0,0
2.207671000,1,0
2.208489000,0,1
2.208499000,0,0
2.257787000,1,0
2.258605000,0,1
2.258611000,0,0
2.307902000,1,0
2.308720000,0,1
2.308730000,0,0
2.358018000,1,0
2.358835000,0,0
2.358836000,0,1
2.358842000,0,0
2.408133000,1,0
2.408951000,0,1
2.408961000,0,0
2.458249000,1,0
2.459066000,0,0
2.459067000,0,1
2.459073000,0,0
2.508364000,1,0
2.509182000,0,1
2.509192000,0,0
2.558480000,1,0
2.559297000,0,0
2.559298000,0,1
2.559307000,0,0
2.608595000,1,0
2.609413000,0,1
2.609419000,0,0
2.658711000,1,0
2.659528000,0,0
2.659529000,0,1
2.659538000,0,0
2.708826000,1,0
2.709644000,0,1
2.709650000,0,0
2.758942000,1,0
2.759759000,0,0
2.759760000,0,1
2.759769000,0,0
2.809057000,1,0
2.809875000,0,1
2.809881000,0,0
2.859173000,1,0
2.859990000,0,0
2.859991000,0,1
2.860000000,0,0
2.909288000,1,0
2.910106000,0,1
2.910112000,0,0
2.959404000,1,0
2.960221000,0,0
2.960222000,0,1
2.960231000,0,0
3.009519000,1,0
3.010337000,0,1
3.010343000,0,0
3.059635000,1,0
3.060452000,0,0
3.060453000,0,1
3.060462000,0,0
3.109750000,1,0
3.110568000,0,1
3.110578000,0,0
3.159866000,1,0
3.160683000,0,0
3.160684000,0,1
3.160690000,0,0
3.209981000,1,0
3.210799000,0,1
3.210809000,0,0
3.260097000,1,0
3.260914000,0,0
3.260915000,0,1
3.260924000,0,0
3.310212000,1,0
3.311030000,0,1
3.311036000,0,0
3.360328000,1,0
3.361145000,0,0
3.361146000,0,1
3.361155000,0,0
3.410443000,1,0
3.411261000,0,1
3.411267000,0,0
3.460559000,1,0
3.461376000,0,0
3.461377000,0,1
3.461386000,0,0
3.510674000,1,0
3.511492000,0,1
3.511498000,0,0
3.560790000,1,0
3.561607000,0,0
3.561608000,0,1
3.561617000,0,0
3.610905000,1,0
3.611723000,0,1
3.611729000,0,0
3.661021000,1,0
3.661838000,0,0
3.661839000,0,1
3.661848000,0,0
3.711136000,1,0
3.711954000,0,1
3.711960000,0,0
3.761252000,1,0
3.762069000,0,0
3.762070000,0,1
3.762079000,0,0
3.811367000,1,0
3.812185000,0,1
3.812191000,0,0
3.861483000,1,0
3.862300000,0,0
3.862301000,0,1
3.862310000,0,0
3.911598000,1,0
3.912416000,0,1
3.912422000,0,0
3.961714000,1,0
3.962531000,0,0
3.962532000,0,1
3.962541000,0,0
4.011829000,1,0
4.012647000,0,1
4.012653000,0,0
4.061945000,1,0
4.062762000,0,0
4.062763000,0,1
4.062772000,0,0
4.112060000,1,0
4.112878000,0,1
4.112884000,0,0
4.162176000,1,0
4.162993000,0,0
4.162994000,0,1
4.163003000,0,0
4.212291000,1,0
4.213109000,0,1
4.213115000,0,0
4.262407000,1,0
4.263224000,0,0
4.263225000,0,1
4.263234000,0,0
4.312522000,1,0
4.313340000,0,1
4.313350000,0,0
4.362638000,1,0
4.363455000,0,0
4.363456000,0,1
4.363462000,0,0
4.412753000,1,0
4.413571000,0,1
4.413581000,0,0
4.462869000,1,0
4.463686000,0,0
4.463687000,0,1
4.463693000,0,0
4.512984000,1,0
4.513802000,0,1
4.513812000,0,0
4.563100000,1,0
4.563917000,0,0
4.563918000,0,1
4.563927000,0,0
4.613215000,1,0
4.614033000,0,1
4.614039000,0,0
4.663331000,1,0
4.664148000,0,0
4.664149000,0,1
4.664158000,0,0
4.713446000,1,0
4.714264000,0,1
4.714270000,0,0
4.763562000,1,0
4.764379000,0,0
4.764380000,0,1
4.764389000,0,0
4.813677000,1,0
4.814495000,0,1
4.814501000,0,0
4.863793000,1,0
4.864610000,0,0
4.864611000,0,1
4.864620000,0,0
4.913908000,1,0
4.914726000,0,1
4.914732000,0,0
4.964024000,1,0
4.964841000,0,0
4.964842000,0,1
4.964851000,0,0
5.014139000,1,0
5.014957000,0,1
5.014963000,0,0
5.064255000,1,0
5.065072000,0,0
5.065073000,0,1
5.065082000,0,0
5.114370000,1,0
5.115188000,0,1
5.115198000,0,0
5.164486000,1,0
5.165303000,0,0
5.165304000,0,1
5.165310000,0,0
5.214601000,1,0
5.215419000,0,1
5.215429000,0,0
5.264717000,1,0
5.265534000,0,0
5.265535000,0,1
5.265544000,0,0
5.314832000,1,0
5.315650000,0,1
5.315656000,0,0
5.364948000,1,0
5.365765000,0,0
5.365766000,0,1
5.365775000,0,0
5.415063000,1,0
5.415881000,0,1
5.415887000,0,0
5.465179000,1,0
5.465996000,0,0
5.465997000,0,1
5.466006000,0,0
5.515294000,1,0
5.516112000,0,1
5.516118000,0,0
5.565410000,1,0
5.566227000,0,0
5.566228000,0,1
5.566237000,0,0
5.615525000,1,0
5.616356000,0,1
5.616366000,0,0
5.665641000,1,0
5.666463000,0,0
5.666464000,0,1
5.666470000,0,0
5.715756000,1,0
5.716574000,0,1
5.716580000,0,0
5.765872000,1,0
5.766689000,0,0
5.766690000,0,1
5.766699000,0,0
5.815987000,1,0
5.816805000,0,1
5.816815000,0,0
5.866103000,1,0
5.866920000,0,0
5.866921000,0,1
5.866927000,0,0
5.916218000,1,0
5.917036000,0,1
5.917046000,0,0
5.966334000,1,0
5.967151000,0,0
5.967152000,0,1
5.967158000,0,0
6.016449000,1,0
6.017267000,0,1
6.017277000,0,0
6.066565000,1,0
6.067382000,0,0
6.067383000,0,1
6.067392000,0,0
6.116680000,1,0
6.117498000,0,1
6.117504000,0,0
6.166796000,1,0
6.167613000,0,0
6.167614000,0,1
6.167620000,0,0
6.216911000,1,0
6.217729000,0,1
6.217739000,0,0
6.267027000,1,0
6.267844000,0,0
6.267845000,0,1
6.267851000,0,0
6.317142000,1,0
6.317960000,0,1
6.317970000,0,0
6.367258000,1,0
6.368075000,0,0
6.368076000,0,1
6.368085000,0,0
6.417373000,1,0
6.418191000,0,1
6.418197000,0,0
6.467489000,1,0
6.468306000,0,0
6.468307000,0,1
6.468316000,0,0
6.517604000,1,0
6.518422000,0,1
6.518432000,0,0
6.567720000,1,0
6.568537000,0,0
6.568538000,0,1
6.568544000,0,0
6.617835000,1,0
6.618653000,0,1
6.618663000,0,0
6.667951000,1,0
6.668768000,0,0
6.668769000,0,1
6.668775000,0,0
6.718066000,1,0
6.718884000,0,1
6.718894000,0,0
6.768182000,1,0
6.768999000,0,0
6.769000000,0,1
6.769009000,0,0
6.818297000,1,0
6.819115000,0,1
6.819121000,0,0
6.868413000,1,0
6.869230000,0,0
6.869231000,0,1
6.869240000,0,0
6.918528000,1,0
6.919346000,0,1
6.919352000,0,0
6.968644000,1,0
6.969461000,0,0
6.969462000,0,1
6.969471000,0,0
7.018759000,1,0
7.019577000,0,1
7.019583000,0,0
7.068875000,1,0
7.069692000,0,0
7.069693000,0,1
7.069702000,0,0
7.118990000,1,0
7.119808000,0,1
7.119814000,0,0
7.169106000,1,0
7.169923000,0,0
7.169924000,0,1
7.169933000,0,0
7.219221000,1,0
7.220039000,0,1
7.220045000,0,0
7.269337000,1,0
7.270154000,0,0
7.270155000,0,1
7.270164000,0,0
7.319452000,1,0
7.320270000,0,1
7.320276000,0,0
7.369567000,1,0
7.370385000,0,0
7.370386000,0,1
7.370395000,0,0
7.419683000,1,0
7.420501000,0,1
7.420507000,0,0
7.469798000,1,0
7.470616000,0,0
7.470617000,0,1
7.470626000,0,0
7.519914000,1,0
7.520732000,0,1
7.520742000,0,0
7.570029000,1,0
7.570847000,0,0
7.570848000,0,1
7.570853000,0,0
7.620145000,1,0
7.620963000,0,1
7.620969000,0,0
7.670260000,1,0
7.671078000,0,0
7.671079000,0,1
7.671088000,0,0
7.720376000,1,0
7.721194000,0,1
7.721204000,0,0
7.770491000,1,0
7.771309000,0,0
7.771310000,0,1
7.771315000,0,0
7.820607000,1,0
7.821425000,0,1
7.821431000,0,0
7.870722000,1,0
7.871540000,0,1
7.871550000,0,0
7.920838000,1,0
7.921656000,0,1
7.921662000,0,0
7.970953000,1,0
7.971771000,0,1
7.971781000,0,0
8.021069000,1,0
8.021887000,0,1
8.021893000,0,0
8.071184000,1,0
8.072002000,0,1
8.072012000,0,0
8.121300000,1,0
8.122118000,0,1
8.122124000,0,0
8.171415000,1,0
8.172233000,0,1
8.172243000,0,0
8.221531000,1,0
8.222349000,0,1
8.222355000,0,0
8.271646000,1,0
8.272464000,0,1
8.272474000,0,0
8.321762000,1,0
8.322580000,0,1
8.322586000,0,0
8.371877000,1,0
8.372695000,0,1
8.372705000,0,0
8.421993000,1,0
8.422811000,0,1
8.422820000,0,0
8.472108000,1,0
8.472926000,0,1
8.472932000,0,0
8.522224000,1,0
8.523042000,0,1
8.523051000,0,0
8.572339000,1,0
8.573157000,0,1
8.573167000,0,0
8.622455000,1,0
8.623273000,0,1
8.623279000,0,0
8.672570000,1,0
8.673388000,0,1
8.673398000,0,0
8.722686000,1,0
8.723504000,0,1
8.723510000,0,0
8.772801000,1,0
8.773619000,0,1
8.773629000,0,0
8.822917000,1,0
8.823735000,0,1
8.823741000,0,0
8.873032000,1,0
8.873850000,0,1
8.873860000,0,0
8.923148000,1,0
8.923966000,0,1
8.923975000,0,0
8.973263000,1,0
8.974081000,0,1
8.974087000,0,0
9.023379000,1,0
9.024197000,0,1
9.024206000,0,0
9.073494000,1,0
9.074312000,0,1
9.074318000,0,0
9.123652000,1,0
9.124470000,0,1
9.124480000,0,0
9.173725000,1,0
9.174543000,0,1
9.174549000,0,0
9.223841000,1,0
9.224658000,0,0
9.224659000,0,1
9.224665000,0,0
9.273956000,1,0
9.274774000,0,1
9.274784000,0,0
9.324072000,1,0
9.324889000,0,0
9.324890000,0,1
9.324896000,0,0
9.374187000,1,0
9.375005000,0,1
9.375015000,0,0
9.424303000,1,0
9.425120000,0,0
9.425121000,0,1
9.425127000,0,0
9.474418000,1,0
9.475236000,0,1
9.475246000,0,0
9.524534000,1,0
9.525351000,0,0
9.525352000,0,1
9.525361000,0,0
9.574649000,1,0
9.575467000,0,1
9.575473000,0,0
9.624765000,1,0
9.625582000,0,0
9.625583000,0,1
9.625592000,0,0
9.674880000,1,0
9.675698000,0,1
9.675704000,0,0
9.724996000,1,0
9.725813000,0,0
9.725814000,0,1
9.725823000,0,0
9.775111000,1,0
9.775929000,0,1
9.775935000,0,0
9.825227000,1,0
9.826044000,0,0
9.826045000,0,1
9.826054000,0,0
9.875342000,1,0
9.876160000,0,1
9.876166000,0,0
9.925458000,1,0
9.926275000,0,0
9.926276000,0,1
9.926285000,0,0
9.975573000,1,0
9.976391000,0,1
9.976397000,0,0
10.025689000,1,0
10.026506000,0,0
10.026507000,0,1
10.026516000,0,0
10.075804000,1,0
10.076622000,0,1
10.076632000,0,0
10.125920000,1,0
10.126737000,0,0
10.126738000,0,1
10.126744000,0,0
10.176035000,1,0
10.176853000,0,1
10.176859000,0,0
10.226151000,1,0
10.226968000,0,0
10.226969000,0,1
10.226978000,0,0
10.276266000,1,0
10.277084000,0,1
10.277090000,0,0
10.326382000,1,0
10.327199000,0,0
10.327200000,0,1
10.327209000,0,0
10.376497000,1,0
10.377315000,0,1
10.377325000,0,0
10.426613000,1,0
10.427430000,0,0
10.427431000,0,1
10.427437000,0,0
10.476728000,1,0
10.477546000,0,1
10.477552000,0,0
10.526844000,1,0
10.527661000,0,0
10.527662000,0,1
10.527671000,0,0
10.576959000,1,0
10.577777000,0,1
10.577787000,0,0
10.627075000,1,0
10.627892000,0,0
10.627893000,0,1
10.627899000,0,0
10.677190000,1,0
10.678008000,0,1
10.678018000,0,0
10.727306000,1,0
10.728123000,0,0
10.728124000,0,1
10.728130000,0,0
10.777421000,1,0
10.778239000,0,1
10.778249000,0,0
10.827537000,1,0
10.828354000,0,0
10.828355000,0,1
10.828361000,0,0
10.877652000,1,0
10.878470000,0,1
10.878476000,0,0
10.927768000,1,0
10.928585000,0,0
10.928586000,0,1
10.928595000,0,0
10.977883000,1,0
10.978701000,0,1
10.978711000,0,0
11.027999000,1,0
11.028816000,0,0
11.028817000,0,1
11.028823000,0,0
11.078114000,1,0
11.078932000,0,1
11.078938000,0,0
11.128230000,1,0
11.129047000,0,0
11.129048000,0,1
11.129057000,0,0
11.178345000,1,0
11.179163000,0,1
11.179169000,0,0
11.228460000,1,0
11.229278000,0,0
11.229279000,0,1
11.229288000,0,0
11.278576000,1,0
11.279394000,0,1
11.279403000,0,0
11.328691000,1,0
11.329509000,0,1
11.329515000,0,0
11.378807000,1,0
11.379625000,0,1
11.379634000,0,0
11.428922000,1,0
11.429740000,0,1
11.429746000,0,0
11.479038000,1,0
11.479856000,0,1
11.479865000,0,0
11.529153000,1,0
11.529971000,0,1
11.529981000,0,0
11.579269000,1,0
11.580086000,0,0
11.580087000,0,1
11.580093000,0,0
11.629384000,1,0
11.630202000,0,1
11.630212000,0,0
11.679500000,1,0
11.680317000,0,0
11.680318000,0,1
11.680324000,0,0
11.729615000,1,0
11.730433000,0,1
11.730439000,0,0
11.779731000,1,0
11.780548000,0,0
11.780549000,0,1
11.780558000,0,0
11.829846000,1,0
11.830664000,0,1
11.830674000,0,0
11.879962000,1,0
11.880779000,0,0
11.880780000,0,1
11.880786000,0,0
11.930077000,1,0
11.930895000,0,1
11.930905000,0,0
11.980193000,1,0
11.981010000,0,0
11.981011000,0,1
11.981020000,0,0
12.030308000,1,0
12.031126000,0,1
12.031132000,0,0
12.080424000,1,0
12.081241000,0,0
12.081242000,0,1
12.081248000,0,0
12.130539000,1,0
12.131357000,0,1
12.131363000,0,0
12.180655000,1,0
12.181472000,0,0
12.181473000,0,1
12.181482000,0,0
12.230770000,1,0
12.231588000,0,1
12.231598000,0,0
12.280886000,1,0
12.281703000,0,0
12.281704000,0,1
12.281710000,0,0
12.331001000,1,0
12.331819000,0,1
12.331829000,0,0
12.381117000,1,0
12.381934000,0,0
12.381935000,0,1
12.381941000,0,0
12.431232000,1,0
12.432050000,0,1
12.432060000,0,0
12.481348000,1,0
12.482165000,0,0
12.482166000,0,1
12.482172000,0,0
12.531463000,1,0
12.532281000,0,1
12.532291000,0,0
12.581579000,1,0
12.582396000,0,0
12.582397000,0,1
12.582403000,0,0
12.631694000,1,0
12.632512000,0,1
12.632522000,0,0
12.681810000,1,0
12.682627000,0,0
12.682628000,0,1
12.682634000,0,0
12.731925000,1,0
12.732743000,0,1
12.732753000,0,0
12.782041000,1,0
12.782858000,0,0
12.782859000,0,1
12.782868000,0,0
12.832156000,1,0
12.832974000,0,1
12.832980000,0,0
12.882272000,1,0
12.883089000,0,0
12.883090000,0,1
12.883099000,0,0
12.932387000,1,0
12.933205000,0,1
12.933211000,0,0
12.982503000,1,0
12.983320000,0,0
12.983321000,0,1
12.983330000,0,0
13.032618000,1,0
13.033436000,0,1
13.033442000,0,0
13.082734000,1,0
13.083551000,0,0
13.083552000,0,1
13.083561000,0,0
13.132849000,1,0
13.133667000,0,1
13.133673000,0,0
13.182965000,1,0
13.183782000,0,0
13.183783000,0,1
13.183792000,0,0
13.233080000,1,0
13.233898000,0,1
13.233904000,0,0
13.283196000,1,0
13.284013000,0,0
13.284014000,0,1
13.284023000,0,0
13.333311000,1,0
13.334129000,0,1
13.334139000,0,0
13.383427000,1,0
13.384244000,0,0
13.384245000,0,1
13.384251000,0,0
13.433542000,1,0
13.434360000,0,1
13.434370000,0,0
13.483658000,1,0
13.484475000,0,0
13.484476000,0,1
13.484482000,0,0
13.533773000,1,0
13.534591000,0,1
13.534601000,0,0
13.583889000,1,0
13.584706000,0,0
13.584707000,0,1
13.584713000,0,0
13.634004000,1,0
13.634822000,0,1
13.634832000,0,0
13.684120000,1,0
13.684937000,0,0
13.684938000,0,1
13.684947000,0,0
13.734235000,1,0
13.735053000,0,1
13.735059000,0,0
13.784351000,1,0
13.785168000,0,0
13.785169000,0,1
13.785178000,0,0
13.834466000,1,0
13.835284000,0,1
13.835290000,0,0
13.884582000,1,0
13.885399000,0,0
13.885400000,0,1
13.885409000,0,0
13.934697000,1,0
13.935515000,0,1
13.935521000,0,0
13.984813000,1,0
13.985630000,0,0
13.985631000,0,1
13.985640000,0,0
14.034928000,1,0
14.035746000,0,1
14.035752000,0,0
14.085044000,1,0
14.085862000,0,1
14.085871000,0,0
14.135159000,1,0
14.135977000,0,0
14.135978000,0,1
14.135983000,0,0
14.185275000,1,0
14.186093000,0,1
14.186102000,0,0
14.235391000,1,0
14.236208000,0,0
14.236209000,0,1
14.236215000,0,0
14.285506000,1,0
14.286324000,0,1
14.286333000,0,0
14.335622000,1,0
14.336439000,0,0
14.336440000,0,1
14.336446000,0,0
14.385737000,1,0
14.386555000,0,1
14.386565000,0,0
14.435853000,1,0
14.436670000,0,0
14.436671000,0,1
14.436677000,0,0
14.485968000,1,0
14.486786000,0,1
14.486796000,0,0
14.536084000,1,0
14.536901000,0,0
14.536902000,0,1
14.536908000,0,0
14.586199000,1,0
14.587017000,0,1
14.587027000,0,0
14.636315000,1,0
14.637132000,0,0
14.637133000,0,1
14.637139000,0,0
14.686430000,1,0
14.687248000,0,1
14.687258000,0,0
14.736546000,1,0
14.737363000,0,0
14.737364000,0,1
14.737370000,0,0
14.786661000,1,0
14.787479000,0,1
14.787489000,0,0
14.836777000,1,0
14.837594000,0,0
14.837595000,0,1
14.837601000,0,0
14.886892000,1,0
14.887710000,0,1
14.887720000,0,0
14.937008000,1,0
14.937825000,0,0
14.937826000,0,1
14.937832000,0,0
14.987123000,1,0
14.987983000,0,1
14.987993000,0,0
15.037239000,1,0
15.038056000,0,0
15.038057000,0,1
15.038063000,0,0
15.087354000,1,0
15.088172000,0,1
15.088182000,0,0
15.137470000,1,0
15.138287000,0,0
15.138288000,0,1
15.138294000,0,0
15.187585000,1,0
15.188403000,0,1
15.188413000,0,0
15.237701000,1,0
15.238518000,0,0
15.238519000,0,1
15.238525000,0,0
15.287816000,1,0
15.288634000,0,1
15.288644000,0,0
15.337932000,1,0
15.338749000,0,0
15.338750000,0,1
15.338756000,0,0
15.388047000,1,0
15.388865000,0,1
15.388875000,0,0
15.438163000,1,0
15.438980000,0,0
15.438981000,0,1
15.438987000,0,0
15.488278000,1,0
15.489096000,0,1
15.489106000,0,0
15.538394000,1,0
15.539211000,0,0
15.539212000,0,1
15.539218000,0,0
15.588509000,1,0
15.589327000,0,1
15.589337000,0,0
15.638625000,1,0
15.639442000,0,0
15.639443000,0,1
15.639452000,0,0
15.688740000,1,0
15.689558000,0,1
15.689564000,0,0
15.738856000,1,0
15.739673000,0,0
15.739674000,0,1
15.739683000,0,0
15.788971000,1,0
15.789789000,0,1
15.789795000,0,0
15.839087000,1,0
15.839904000,0,0
15.839905000,0,1
15.839914000,0,0
15.889202000,1,0
15.890020000,0,1
15.890026000,0,0
15.939318000,1,0
15.940136000,0,1
15.940142000,0,0
15.989433000,1,0
15.990251000,0,1
15.990261000,0,0
16.039549000,1,0
16.040367000,0,1
16.040373000,0,0
16.089664000,1,0
16.090482000,0,1
16.090492000,0,0
16.139780000,1,0
16.140598000,0,1
16.140604000,0,0
16.189895000,1,0
16.190713000,0,1
16.190723000,0,0
16.240011000,1,0
16.240829000,0,1
16.240835000,0,0
16.290126000,1,0
16.290944000,0,1
16.290954000,0,0
16.340242000,1,0
16.341060000,0,1
16.341066000,0,0
16.390357000,1,0
16.391175000,0,1
16.391185000,0,0
16.440473000,1,0
16.441291000,0,1
16.441297000,0,0
16.490588000,1,0
16.491406000,0,1
16.491416000,0,0
16.540704000,1,0
16.541522000,0,1
16.541528000,0,0
16.590819000,1,0
16.591637000,0,1
16.591647000,0,0
16.640935000,1,0
16.641753000,0,1
16.641759000,0,0
16.691050000,1,0
16.691868000,0,1
16.691878000,0,0
16.741166000,1,0
16.741984000,0,1
16.741990000,0,0
16.791281000,1,0
16.792099000,0,1
16.792109000,0,0
16.841397000,1,0
16.842215000,0,1
16.842221000,0,0
16.891512000,1,0
16.892334000,0,0
16.892335000,0,1
16.892344000,0,0
16.941628000,1,0
16.942446000,0,1
16.942452000,0,0
16.991743000,1,0
16.992561000,0,1
16.992571000,0,0
17.041859000,1,0
17.042677000,0,1
17.042683000,0,0
17.091974000,1,0
17.092792000,0,0
17.092793000,0,1
17.092802000,0,0
17.142090000,1,0
17.142908000,0,1
17.142914000,0,0
17.192205000,1,0
17.193023000,0,0
17.193024000,0,1
17.193033000,0,0
17.242321000,1,0
17.243139000,0,1
17.243145000,0,0
17.292437000,1,0
17.293254000,0,0
17.293255000,0,1
17.293264000,0,0
17.342552000,1,0
17.343370000,0,1
17.343376000,0,0
17.392668000,1,0
17.393485000,0,0
17.393486000,0,1
17.393495000,0,0
17.442783000,1,0
17.443601000,0,1
17.443607000,0,0
17.492899000,1,0
17.493716000,0,0
17.493717000,0,1
17.493726000,0,0
17.543014000,1,0
17.543832000,0,1
17.543838000,0,0
17.593130000,1,0
17.593947000,0,0
17.593948000,0,1
17.593957000,0,0
17.643245000,1,0
