Time [s],Channel 2,Channel 3
0.000000000,0,1
0.030355000,0,0
0.031181000,1,0
0.032115000,0,1
0.080471000,0,0
0.081297000,1,0
0.082230000,0,0
0.082231000,0,1
0.130587000,0,0
0.131413000,1,0
0.132346000,0,1
0.180702000,0,0
0.181528000,1,0
0.182462000,0,1
0.230818000,0,0
0.231644000,1,0
0.232577000,0,0
0.232578000,0,1
0.280933000,0,0
0.281759000,1,0
0.282693000,0,1
0.331049000,0,0
0.331875000,1,0
0.332809000,0,1
0.381165000,0,0
0.381991000,1,0
0.382924000,0,1
0.431280000,0,0
0.432106000,1,0
0.433040000,0,1
0.481396000,0,0
0.482222000,1,0
0.483155000,0,0
0.483156000,0,1
0.531512000,0,0
0.532338000,1,0
0.533271000,0,1
0.581627000,0,0
0.582453000,1,0
0.583387000,0,1
0.631743000,0,0
0.632569000,1,0
0.633502000,0,0
0.633503000,0,1
0.681858000,0,0
0.682684000,1,0
0.683618000,0,1
0.731974000,0,0
0.732800000,1,0
0.733734000,0,1
0.782090000,0,0
0.782916000,1,0
0.783849000,0,1
0.832205000,0,0
0.833031000,1,0
0.833965000,0,1
0.882321000,0,0
0.883147000,1,0
0.884080000,0,0
0.884081000,0,1
0.932437000,0,0
0.933263000,1,0
0.934196000,0,1
0.982552000,0,0
0.983378000,1,0
0.984312000,0,1
1.032668000,0,0
1.033494000,1,0
1.034427000,0,0
1.034428000,0,1
1.082783000,0,0
1.083609000,1,0
1.084543000,0,1
1.132899000,0,0
1.133725000,1,0
1.134659000,0,1
1.183015000,0,0
1.183841000,1,0
1.184774000,0,1
1.233130000,0,0
1.233956000,1,0
1.234890000,0,1
1.283246000,0,0
1.284072000,1,0
1.285005000,0,0
1.285006000,0,1
1.333361000,0,0
1.334188000,1,0
1.335121000,0,1
1.383477000,0,0
1.384307000,1,0
1.392424000,0,0
1.392425000,0,1
1.433593000,0,0
1.434419000,1,0
1.442536000,0,0
1.442537000,0,1
1.483708000,0,0
1.484534000,1,0
1.492652000,0,1
1.533824000,0,0
1.534650000,1,0
1.542767000,0,0
1.542768000,0,1
1.583940000,0,0
1.584766000,1,0
1.592883000,0,1
1.634055000,0,0
1.634881000,1,0
1.642999000,0,1
1.684171000,0,0
1.684997000,1,0
1.693114000,0,0
1.693115000,0,1
1.734286000,0,0
1.735113000,1,0
1.743230000,0,1
1.784402000,0,0
1.785228000,1,0
1.793345000,0,0
1.793346000,0,1
1.834518000,0,0
1.835344000,1,0
1.843461000,0,0
1.843462000,0,1
1.884633000,0,0
1.885463000,1,0
1.893581000,0,1
1.934749000,0,0
1.935579000,1,0
1.943743000,0,1
1.984865000,0,0
1.985698000,1,0
1.993815000,0,0
1.993816000,0,1
2.034980000,0,0
2.035814000,1,0
2.043931000,0,1
2.085096000,0,0
2.085926000,1,0
2.094089000,0,0
2.094090000,0,1
2.135211000,0,0
2.136045000,1,0
2.144162000,0,0
2.144163000,0,1
2.185327000,0,0
2.186161000,1,0
2.194278000,0,1
2.235443000,0,0
2.236273000,1,0
2.244436000,0,1
2.285558000,0,0
2.286392000,1,0
2.294509000,0,1
2.335674000,0,0
2.336508000,1,0
2.344625000,0,1
2.385789000,0,0
2.386620000,1,0
2.394783000,0,1
2.435905000,0,0
2.436739000,1,0
2.444856000,0,1
2.486021000,0,0
2.486854000,1,0
2.494972000,0,1
2.536136000,0,0
2.536967000,1,0
2.545084000,0,1
2.586252000,0,0
2.587086000,1,0
2.595203000,0,1
2.636368000,0,0
2.637201000,1,0
2.645319000,0,1
2.686483000,0,0
2.687313000,1,0
2.695477000,0,0
2.695478000,0,1
2.736599000,0,0
2.737433000,1,0
2.745550000,0,1
2.786715000,0,0
2.787548000,1,0
2.795665000,0,0
2.795666000,0,1
2.836830000,0,0
2.837661000,1,0
2.845824000,0,1
2.886946000,0,0
2.887780000,1,0
2.895897000,0,1
2.937062000,0,0
2.937895000,1,0
2.946013000,0,1
2.987177000,0,0
2.988007000,1,0
2.996125000,0,1
3.037293000,0,0
3.038127000,1,0
3.046244000,0,1
3.087409000,0,0
3.088239000,1,0
3.096402000,0,0
3.096403000,0,1
3.137524000,0,0
3.138358000,1,0
3.146475000,0,1
3.187640000,0,0
3.188473000,1,0
3.196591000,0,1
3.237755000,0,0
3.238586000,1,0
3.246749000,0,0
3.246750000,0,1
3.287871000,0,0
3.288705000,1,0
3.296822000,0,1
3.337987000,0,0
3.338821000,1,0
3.346938000,0,1
3.388102000,0,0
3.388933000,1,0
3.397096000,0,1
3.438218000,0,0
3.439052000,1,0
3.447169000,0,1
3.488334000,0,0
3.489167000,1,0
3.497284000,0,0
3.497285000,0,1
3.538449000,0,0
3.539280000,1,0
3.547443000,0,0
3.547444000,0,1
3.588565000,0,0
3.589399000,1,0
3.597516000,0,1
3.638681000,0,0
3.639514000,1,0
3.647631000,0,0
3.647632000,0,1
3.688796000,0,0
3.689626000,1,0
3.697790000,0,1
3.738912000,0,0
3.739746000,1,0
3.747863000,0,1
3.789027000,0,0
3.789861000,1,0
3.797978000,0,0
3.797979000,0,1
3.839143000,0,0
3.839973000,1,0
3.848137000,0,1
3.889259000,0,0
3.890092000,1,0
3.898210000,0,1
3.939374000,0,0
3.940208000,1,0
3.948325000,0,0
3.948326000,0,1
3.989490000,0,0
3.990320000,1,0
3.998484000,0,1
4.039606000,0,0
4.040439000,1,0
4.048557000,0,1
4.089721000,0,0
4.090555000,1,0
4.098672000,0,0
4.098673000,0,1
4.139837000,0,0
4.140667000,1,0
4.148831000,0,1
4.189953000,0,0
4.190786000,1,0
4.198903000,0,0
4.198904000,0,1
4.240068000,0,0
4.240902000,1,0
4.249019000,0,0
4.249020000,0,1
4.290184000,0,0
4.291014000,1,0
4.299177000,0,0
4.299178000,0,1
4.340300000,0,0
4.341133000,1,0
4.349250000,0,0
4.349251000,0,1
4.390415000,0,0
4.391249000,1,0
4.399366000,0,1
4.440531000,0,0
4.441361000,1,0
4.449525000,0,1
4.490646000,0,0
4.491480000,1,0
4.499597000,0,0
4.499598000,0,1
4.540762000,0,0
4.541596000,1,0
4.549713000,0,1
4.590878000,0,0
4.591708000,1,0
4.599871000,0,0
4.599872000,0,1
4.640993000,0,0
4.641827000,1,0
4.649944000,0,0
4.649945000,0,1
4.691109000,0,0
4.691943000,1,0
4.700033000,0,0
4.700034000,0,1
4.741225000,0,0
4.742055000,1,0
4.750192000,0,0
4.750193000,0,1
4.791340000,0,0
4.792174000,1,0
4.800265000,0,1
4.841456000,0,0
4.842290000,1,0
4.850380000,0,0
4.850381000,0,1
4.891572000,0,0
4.892402000,1,0
4.900539000,0,1
4.941687000,0,0
4.942521000,1,0
4.950612000,0,1
4.991803000,0,0
4.992636000,1,0
5.000727000,0,0
5.000728000,0,1
5.041918000,0,0
5.042749000,1,0
5.050888000,0,1
5.092034000,0,0
5.092868000,1,0
5.100972000,0,1
5.142150000,0,0
5.142983000,1,0
5.151087000,0,0
5.151088000,0,1
5.192265000,0,0
5.193095000,1,0
5.201246000,0,1
5.242381000,0,0
5.243215000,1,0
5.251319000,0,1
5.292497000,0,0
5.293330000,1,0
5.301434000,0,0
5.301435000,0,1
5.342612000,0,0
5.343442000,1,0
5.351593000,0,1
5.392728000,0,0
5.393562000,1,0
5.401666000,0,1
5.442844000,0,0
5.443677000,1,0
5.451781000,0,0
5.451782000,0,1
5.492959000,0,0
5.493789000,1,0
5.501940000,0,1
5.543075000,0,0
5.543909000,1,0
5.552013000,0,1
5.593190000,0,0
5.594024000,1,0
5.602128000,0,1
5.643306000,0,0
5.644136000,1,0
5.652287000,0,1
5.693422000,0,0
5.694255000,1,0
5.702359000,0,0
5.702360000,0,1
5.743537000,0,0
5.744371000,1,0
5.752475000,0,0
5.752476000,0,1
5.793653000,0,0
5.794483000,1,0
5.802633000,0,0
5.802634000,0,1
5.843769000,0,0
5.844602000,1,0
5.852706000,0,0
5.852707000,0,1
5.893884000,0,0
5.894718000,1,0
5.902822000,0,1
5.944000000,0,0
5.944830000,1,0
5.952981000,0,1
5.994116000,0,0
5.994949000,1,0
6.003053000,0,0
6.003054000,0,1
6.044231000,0,0
6.045065000,1,0
6.053169000,0,1
6.094347000,0,0
6.095177000,1,0
6.103327000,0,0
6.103328000,0,1
6.144462000,0,0
6.145296000,1,0
6.153400000,0,0
6.153401000,0,1
6.194578000,0,0
6.195412000,1,0
6.203516000,0,1
6.244694000,0,0
6.245524000,1,0
6.253674000,0,0
6.253675000,0,1
6.294809000,0,0
6.295643000,1,0
6.303747000,0,1
6.344925000,0,0
6.345759000,1,0
6.353863000,0,1
6.395041000,0,0
6.395871000,1,0
6.404021000,0,0
6.404022000,0,1
6.445156000,0,0
6.445990000,1,0
6.454094000,0,1
6.495272000,0,0
6.496106000,1,0
6.504210000,0,1
6.545388000,0,0
6.546218000,1,0
6.554368000,0,0
6.554369000,0,1
6.595503000,0,0
6.596337000,1,0
6.604441000,0,1
6.645619000,0,0
6.646453000,1,0
6.654557000,0,1
6.695734000,0,0
6.696565000,1,0
6.704715000,0,1
6.745850000,0,0
6.746684000,1,0
6.754788000,0,1
6.795966000,0,0
6.796799000,1,0
6.804903000,0,0
6.804904000,0,1
6.846081000,0,0
6.846912000,1,0
6.855062000,0,1
6.896197000,0,0
6.897031000,1,0
6.905135000,0,1
6.946313000,0,0
6.947146000,1,0
6.955250000,0,0
6.955251000,0,1
6.996428000,0,0
6.997258000,1,0
7.005409000,0,1
7.046544000,0,0
7.047378000,1,0
7.055482000,0,1
7.096660000,0,0
7.097493000,1,0
7.105597000,0,0
7.105598000,0,1
7.146775000,0,0
7.147605000,1,0
7.155756000,0,1
7.196891000,0,0
7.197724000,1,0
7.205828000,0,0
7.205829000,0,1
7.247006000,0,0
7.247840000,1,0
7.255944000,0,0
7.255945000,0,1
7.297122000,0,0
7.297952000,1,0
7.306103000,0,1
7.347238000,0,0
7.348072000,1,0
7.356175000,0,0
7.356176000,0,1
7.397353000,0,0
7.398187000,1,0
7.406291000,0,1
7.447469000,0,0
7.448299000,1,0
7.456450000,0,1
7.497585000,0,0
7.498418000,1,0
7.506522000,0,0
7.506523000,0,1
7.547700000,0,0
7.548534000,1,0
7.556638000,0,1
7.597816000,0,0
7.598646000,1,0
7.606796000,0,0
7.606797000,0,1
7.647932000,0,0
7.648765000,1,0
7.656869000,0,0
7.656870000,0,1
7.698047000,0,0
7.698881000,1,0
7.706985000,0,1
7.748163000,0,0
7.748993000,1,0
7.757144000,0,1
7.798278000,0,0
7.799112000,1,0
7.807216000,0,1
7.848394000,0,0
7.849228000,1,0
7.857332000,0,1
7.898510000,0,0
7.899340000,1,0
7.907490000,0,0
7.907491000,0,1
7.948625000,0,0
7.949459000,1,0
7.957563000,0,1
7.998741000,0,0
7.999575000,1,0
8.007679000,0,1
8.048857000,0,0
8.049687000,1,0
8.057837000,0,0
8.057838000,0,1
8.098972000,0,0
8.099806000,1,0
8.107910000,0,1
8.149088000,0,0
8.149922000,1,0
8.158026000,0,1
8.199204000,0,0
8.200034000,1,0
8.208184000,0,1
8.249319000,0,0
8.250153000,1,0
8.258257000,0,1
8.299435000,0,0
8.300268000,1,0
8.308372000,0,0
8.308373000,0,1
8.349550000,0,0
8.350381000,1,0
8.358531000,0,1
8.399666000,0,0
8.400500000,1,0
8.408604000,0,1
8.449782000,0,0
8.450615000,1,0
8.458719000,0,0
8.458720000,0,1
8.499897000,0,0
8.500727000,1,0
8.508878000,0,1
8.550013000,0,0
8.550847000,1,0
8.558951000,0,1
8.600129000,0,0
8.600962000,1,0
8.609066000,0,0
8.609067000,0,1
8.650244000,0,0
8.651074000,1,0
8.659225000,0,1
8.700360000,0,0
8.701194000,1,0
8.709297000,0,0
8.709298000,0,1
8.750475000,0,0
8.751309000,1,0
8.759413000,0,0
8.759414000,0,1
8.800591000,0,0
8.801421000,1,0
8.809572000,0,1
8.850707000,0,0
8.851541000,1,0
8.859644000,0,0
8.859645000,0,1
8.900822000,0,0
8.901656000,1,0
8.909760000,0,1
8.950938000,0,0
8.951768000,1,0
8.959919000,0,1
9.001054000,0,0
9.001887000,1,0
9.009991000,0,0
9.009992000,0,1
9.051169000,0,0
9.052003000,1,0
9.060107000,0,1
9.101285000,0,0
9.102115000,1,0
9.110265000,0,0
9.110266000,0,1
9.151401000,0,0
9.152234000,1,0
9.160338000,0,0
9.160339000,0,1
9.201516000,0,0
9.202350000,1,0
9.210454000,0,1
9.251632000,0,0
9.252462000,1,0
9.260612000,0,0
9.260613000,0,1
9.301747000,0,0
9.302581000,1,0
9.310685000,0,1
9.351863000,0,0
9.352697000,1,0
9.360801000,0,1
9.401979000,0,0
9.402809000,1,0
9.410959000,0,0
9.410960000,0,1
9.452094000,0,0
9.452928000,1,0
9.461032000,0,1
9.502210000,0,0
9.503044000,1,0
9.511148000,0,1
9.552326000,0,0
9.553156000,1,0
9.561260000,0,1
9.602441000,0,0
9.603275000,1,0
9.611379000,0,1
9.652557000,0,0
9.653391000,1,0
9.661495000,0,1
9.702673000,0,0
9.703503000,1,0
9.711607000,0,1
9.752788000,0,0
9.753622000,1,0
9.761726000,0,1
9.802904000,0,0
9.803737000,1,0
9.811841000,0,0
9.811842000,0,1
9.853019000,0,0
9.853850000,1,0
9.861954000,0,1
9.903135000,0,0
9.903969000,1,0
9.912073000,0,1
9.953251000,0,0
9.954081000,1,0
9.962231000,0,0
9.962232000,0,1
10.003366000,0,0
10.004200000,1,0
10.012304000,0,1
10.053482000,0,0
10.054316000,1,0
10.062420000,0,1
10.103598000,0,0
10.104432000,1,0
10.112536000,0,1
10.153713000,0,0
10.154543000,1,0
10.162647000,0,0
10.162648000,0,1
10.203829000,0,0
10.204662000,1,0
10.212766000,0,0
10.212767000,0,1
10.253944000,0,0
10.254775000,1,0
10.262925000,0,0
10.262926000,0,1
10.304060000,0,0
10.304894000,1,0
10.312998000,0,1
10.354176000,0,0
10.355009000,1,0
10.363113000,0,0
10.363114000,0,1
10.404291000,0,0
10.405121000,1,0
10.413272000,0,1
10.454407000,0,0
10.455241000,1,0
10.463345000,0,1
10.504523000,0,0
10.505356000,1,0
10.513460000,0,0
10.513461000,0,1
10.554638000,0,0
10.555468000,1,0
10.563619000,0,1
10.604754000,0,0
10.605588000,1,0
10.613691000,0,0
10.613692000,0,1
10.654870000,0,0
10.655703000,1,0
10.663807000,0,0
10.663808000,0,1
10.704985000,0,0
10.705815000,1,0
10.713966000,0,1
10.755101000,0,0
10.755935000,1,0
10.764038000,0,0
10.764039000,0,1
10.805216000,0,0
10.806050000,1,0
10.814154000,0,1
10.855332000,0,0
10.856162000,1,0
10.864313000,0,1
10.905448000,0,0
10.906281000,1,0
10.914385000,0,0
10.914386000,0,1
10.955563000,0,0
10.956397000,1,0
10.964501000,0,1
11.005679000,0,0
11.006509000,1,0
11.014659000,0,0
11.014660000,0,1
11.055795000,0,0
11.056628000,1,0
11.064745000,0,0
11.064746000,0,1
11.105910000,0,0
11.106744000,1,0
11.114861000,0,1
11.156026000,0,0
11.156856000,1,0
11.165020000,0,1
11.206141000,0,0
11.206975000,1,0
11.215092000,0,0
11.215093000,0,1
11.256257000,0,0
11.257091000,1,0
11.265208000,0,1
11.306373000,0,0
11.307203000,1,0
11.315366000,0,0
11.315367000,0,1
11.356488000,0,0
11.357322000,1,0
11.365439000,0,0
11.365440000,0,1
11.406604000,0,0
11.407438000,1,0
11.415555000,0,1
11.456720000,0,0
11.457550000,1,0
11.465713000,0,0
11.465714000,0,1
11.506835000,0,0
11.507669000,1,0
11.515786000,0,1
11.556951000,0,0
11.557785000,1,0
11.565902000,0,1
11.607067000,0,0
11.607897000,1,0
11.616060000,0,0
11.616061000,0,1
11.657182000,0,0
11.658016000,1,0
11.666133000,0,1
11.707298000,0,0
11.708131000,1,0
11.716249000,0,1
11.757413000,0,0
11.758244000,1,0
11.766407000,0,1
11.807529000,0,0
11.808363000,1,0
11.816480000,0,1
11.857645000,0,0
11.858478000,1,0
11.866596000,0,1
11.907760000,0,0
11.908590000,1,0
11.916754000,0,1
11.957876000,0,0
11.958710000,1,0
11.966827000,0,1
12.007992000,0,0
12.008825000,1,0
12.016942000,0,0
12.016943000,0,1
12.058107000,0,0
12.058937000,1,0
12.067054000,0,0
12.067055000,0,1
12.108223000,0,0
12.109056000,1,0
12.117174000,0,1
12.158338000,0,0
12.159178000,1,0
12.167296000,0,1
12.208454000,0,0
12.209284000,1,0
12.217401000,0,0
12.217402000,0,1
12.258570000,0,0
12.259403000,1,0
12.267521000,0,1
12.308685000,0,0
12.309515000,1,0
12.317679000,0,1
12.358801000,0,0
12.359635000,1,0
12.367752000,0,1
12.408917000,0,0
12.409750000,1,0
12.417867000,0,0
12.417868000,0,1
12.459032000,0,0
12.459862000,1,0
12.468026000,0,1
12.509148000,0,0
12.509982000,1,0
12.518099000,0,1
12.559263000,0,0
12.560097000,1,0
12.568214000,0,0
12.568215000,0,1
12.609379000,0,0
12.610209000,1,0
12.618373000,0,1
12.659495000,0,0
12.660328000,1,0
12.668446000,0,1
12.709610000,0,0
12.710444000,1,0
12.718561000,0,1
12.759726000,0,0
12.760556000,1,0
12.768720000,0,1
12.809842000,0,0
12.810675000,1,0
12.818792000,0,0
12.818793000,0,1
12.859957000,0,0
12.860791000,1,0
12.868908000,0,1
12.910073000,0,0
12.910903000,1,0
12.919066000,0,0
12.919067000,0,1
12.960188000,0,0
12.961022000,1,0
12.969139000,0,0
12.969140000,0,1
13.010304000,0,0
13.011138000,1,0
13.019255000,0,1
13.060420000,0,0
13.061250000,1,0
13.069413000,0,0
13.069414000,0,1
13.110535000,0,0
13.111369000,1,0
13.119486000,0,0
13.119487000,0,1
13.160651000,0,0
13.161485000,1,0
13.169602000,0,1
13.210767000,0,0
13.211597000,1,0
13.219760000,0,0
13.219761000,0,1
13.260882000,0,0
13.261716000,1,0
13.269833000,0,1
13.310998000,0,0
13.311832000,1,0
13.319949000,0,1
13.361113000,0,0
13.361944000,1,0
13.370107000,0,1
13.411229000,0,0
13.412063000,1,0
13.420180000,0,1
13.461345000,0,0
13.462178000,1,0
13.470296000,0,1
13.511460000,0,0
13.512290000,1,0
13.520454000,0,1
13.561576000,0,0
13.562410000,1,0
13.570527000,0,1
13.611692000,0,0
13.612525000,1,0
13.620642000,0,0
13.620643000,0,1
13.661807000,0,0
13.662637000,1,0
13.670801000,0,1
13.711923000,0,0
13.712757000,1,0
13.720874000,0,1
13.762039000,0,0
13.762872000,1,0
13.770989000,0,0
13.770990000,0,1
13.812154000,0,0
13.812984000,1,0
13.821148000,0,1
13.862270000,0,0
13.863104000,1,0
13.871221000,0,1
13.912385000,0,0
13.913219000,1,0
13.921336000,0,0
13.921337000,0,1
13.962501000,0,0
13.963331000,1,0
13.971495000,0,1
14.012617000,0,0
14.013450000,1,0
14.021567000,0,0
14.021568000,0,1
14.062732000,0,0
14.063566000,1,0
14.071683000,0,0
14.071684000,0,1
14.112848000,0,0
14.113678000,1,0
14.121842000,0,1
14.162963000,0,0
14.163797000,1,0
14.171914000,0,0
14.171915000,0,1
14.213079000,0,0
14.213913000,1,0
14.222030000,0,1
14.263195000,0,0
14.264025000,1,0
14.272188000,0,0
14.272189000,0,1
14.313310000,0,0
14.314144000,1,0
14.322261000,0,0
14.322262000,0,1
14.363426000,0,0
14.364260000,1,0
14.372377000,0,1
14.413542000,0,0
14.414372000,1,0
14.422535000,0,0
14.422536000,0,1
14.463657000,0,0
14.464491000,1,0
14.472608000,0,1
14.513773000,0,0
14.514607000,1,0
14.522724000,0,1
14.563889000,0,0
14.564719000,1,0
14.572882000,0,0
14.572883000,0,1
14.614004000,0,0
14.614838000,1,0
14.622955000,0,1
14.664120000,0,0
14.664954000,1,0
14.673071000,0,1
14.714235000,0,0
14.715065000,1,0
14.723229000,0,1
14.764351000,0,0
14.765185000,1,0
14.773302000,0,1
14.814467000,0,0
14.815300000,1,0
14.823417000,0,0
14.823418000,0,1
14.864582000,0,0
14.865412000,1,0
14.873576000,0,1
14.914698000,0,0
14.915532000,1,0
14.923649000,0,1
14.964814000,0,0
14.965647000,1,0
14.973764000,0,0
14.973765000,0,1
15.014929000,0,0
15.015759000,1,0
15.023923000,0,1
15.065045000,0,0
15.065879000,1,0
15.073996000,0,1
15.115160000,0,0
15.115994000,1,0
15.124111000,0,0
15.124112000,0,1
15.165276000,0,0
15.166106000,1,0
15.174270000,0,1
15.215392000,0,0
15.216225000,1,0
15.224342000,0,0
15.224343000,0,1
15.265507000,0,0
15.266341000,1,0
15.274458000,0,0
15.274459000,0,1
15.315623000,0,0
15.316453000,1,0
15.324616000,0,0
15.324617000,0,1
15.365739000,0,0
15.366572000,1,0
15.374689000,0,0
15.374690000,0,1
15.415854000,0,0
15.416688000,1,0
15.424805000,0,1
15.465970000,0,0
15.466800000,1,0
15.474964000,0,1
15.516085000,0,0
15.516919000,1,0
15.525036000,0,0
15.525037000,0,1
15.566201000,0,0
15.567035000,1,0
15.575152000,0,1
15.616317000,0,0
15.617147000,1,0
15.625310000,0,0
15.625311000,0,1
15.666432000,0,0
15.667266000,1,0
15.675383000,0,0
15.675384000,0,1
15.716548000,0,0
15.717382000,1,0
15.725499000,0,1
15.766663000,0,0
15.767494000,1,0
15.775657000,0,0
15.775658000,0,1
15.816779000,0,0
15.817613000,1,0
15.825730000,0,1
15.866895000,0,0
15.867728000,1,0
15.875846000,0,1
15.917010000,0,0
15.917840000,1,0
15.926004000,0,1
15.967126000,0,0
15.967960000,1,0
15.976077000,0,1
16.017242000,0,0
16.018075000,1,0
16.026192000,0,0
16.026193000,0,1
16.067357000,0,0
16.068187000,1,0
16.076351000,0,0
16.076352000,0,1
16.117473000,0,0
16.118307000,1,0
16.126424000,0,1
16.167588000,0,0
16.168422000,1,0
16.176539000,0,0
16.176540000,0,1
16.217704000,0,0
16.218534000,1,0
16.226698000,0,1
16.267820000,0,0
16.268653000,1,0
16.276771000,0,1
16.317935000,0,0
16.318769000,1,0
16.326886000,0,1
16.368051000,0,0
16.368881000,1,0
16.377045000,0,1
16.418167000,0,0
16.419000000,1,0
16.427117000,0,0
16.427118000,0,1
16.468282000,0,0
16.469116000,1,0
16.477233000,0,1
16.518398000,0,0
16.519228000,1,0
16.527391000,0,0
16.527392000,0,1
16.568513000,0,0
16.569347000,1,0
16.577464000,0,0
16.577465000,0,1
16.618629000,0,0
16.619463000,1,0
16.627580000,0,1
16.668745000,0,0
16.669575000,1,0
16.677739000,0,1
16.718860000,0,0
16.719694000,1,0
16.727811000,0,1
16.768976000,0,0
16.769810000,1,0
16.777927000,0,1
16.819092000,0,0
16.819922000,1,0
16.828085000,0,0
16.828086000,0,1
16.869207000,0,0
16.870041000,1,0
16.878158000,0,1
16.919323000,0,0
16.920156000,1,0
16.928274000,0,1
16.969438000,0,0
16.970269000,1,0
16.978432000,0,1
17.019554000,0,0
17.020388000,1,0
17.028505000,0,1
17.069670000,0,0
17.070503000,1,0
17.078621000,0,1
17.119785000,0,0
17.120615000,1,0
17.128779000,0,1
17.169901000,0,0
17.170735000,1,0
17.178852000,0,1
17.220017000,0,0
17.220850000,1,0
17.228967000,0,0
17.228968000,0,1
17.270132000,0,0
17.270962000,1,0
17.279079000,0,0
17.279080000,0,1
17.320248000,0,0
17.321081000,1,0
17.329199000,0,1
17.370363000,0,0
17.371197000,1,0
17.379314000,0,0
17.379315000,0,1
17.420479000,0,0
17.421309000,1,0
17.429473000,0,1
17.470595000,0,0
17.471428000,1,0
17.479505000,0,1
17.520710000,0,0
17.521544000,1,0
17.529635000,0,1
17.570826000,0,0
17.571656000,1,0
17.579747000,0,1
17.620941000,0,0
17.621772000,1,0
17.629862000,0,0
17.629863000,0,1
17.671057000,0,0
17.671883000,1,0
17.679974000,0,0
17.679975000,0,1
17.721173000,0,0
17.721999000,1,0
17.730090000,0,1
17.771288000,0,0
17.772114000,1,0
17.780206000,0,1
17.821404000,0,0
17.822230000,1,0
17.830321000,0,1
17.871520000,0,0
17.872346000,1,0
17.880450000,0,1
17.921635000,0,0
17.922461000,1,0
17.930565000,0,0
17.930566000,0,1
17.971751000,0,0
17.972577000,1,0
17.980681000,0,0
17.980682000,0,1
