Time [s],Channel 3,Channel 4,Channel 5
0.000000000,1,0,0
0.009853000,0,0,0
0.009875000,0,1,0
0.019855000,0,0,0
0.019878000,1,0,0
0.029858000,0,0,0
0.029880000,0,1,0
0.039860000,0,0,0
0.039883000,1,0,0
0.049864000,0,0,0
0.049890000,0,0,1
0.055865000,0,0,0
0.055894000,0,0,1
0.059913000,0,0,0
0.059927000,1,0,0
0.069903000,0,0,0
0.069925000,0,1,0
0.079905000,0,0,0
0.079928000,1,0,0
0.089909000,0,0,0
0.089931000,0,1,0
0.099911000,0,0,0
0.099933000,1,0,0
0.109914000,0,0,0
0.109939000,0,0,1
0.119962000,0,0,0
0.119977000,1,0,0
0.129953000,0,0,0
0.129975000,0,1,0
0.139956000,0,0,0
0.139978000,1,0,0
0.149959000,0,0,0
0.149981000,0,1,0
0.159961000,0,0,0
0.159983000,1,0,0
0.169963000,0,0,0
0.169989000,0,0,1
0.170897000,0,0,0
0.170926000,0,0,1
0.179946000,0,0,0
0.179960000,1,0,0
0.189936000,0,0,0
0.189959000,0,1,0
0.199940000,0,0,0
0.199962000,1,0,0
0.209942000,0,0,0
0.209965000,0,1,0
0.219945000,0,0,0
0.219967000,1,0,0
0.229948000,0,0,0
0.229973000,0,0,1
0.235916000,0,0,0
0.235945000,0,0,1
0.239963000,0,0,0
0.239977000,1,0,0
0.249954000,0,0,0
0.249977000,0,1,0
0.259957000,0,0,0
0.259979000,1,0,0
0.269959000,0,0,0
0.269981000,0,1,0
0.279962000,0,0,0
0.279984000,1,0,0
0.289965000,0,0,0
0.289991000,0,0,1
0.300013000,0,0,0
0.300028000,1,0,0
0.310003000,0,0,0
0.310026000,0,1,0
0.320007000,0,0,0
0.320029000,1,0,0
0.330009000,0,0,0
0.330032000,0,1,0
0.340012000,0,0,0
0.340034000,1,0,0
0.350014000,0,0,0
0.350039000,0,0,1
0.350982000,0,0,0
0.351011000,0,0,1
0.360030000,0,0,0
0.360045000,1,0,0
0.370021000,0,0,0
0.370044000,0,1,0
0.380024000,0,0,0
0.380046000,1,0,0
0.390026000,0,0,0
0.390049000,0,1,0
0.400029000,0,0,0
0.400051000,1,0,0
0.410032000,0,0,0
0.410058000,0,0,1
0.416034000,0,0,0
0.416063000,0,0,1
0.420081000,0,0,0
0.420095000,1,0,0
0.430071000,0,0,0
0.430094000,0,1,0
0.440074000,0,0,0
0.440096000,1,0,0
0.450077000,0,0,0
0.450100000,0,1,0
0.460080000,0,0,0
0.460102000,1,0,0
0.470082000,0,0,0
0.470107000,0,0,1
0.480131000,0,0,0
0.480145000,1,0,0
0.490121000,0,0,0
0.490144000,0,1,0
0.500125000,0,0,0
0.500147000,1,0,0
0.510127000,0,0,0
0.510150000,0,1,0
0.520130000,0,0,0
0.520152000,1,0,0
0.530132000,0,0,0
0.530157000,0,0,1
0.531066000,0,0,0
0.531095000,0,0,1
0.540115000,0,0,0
0.540129000,1,0,0
0.550105000,0,0,0
0.550127000,0,1,0
0.560108000,0,0,0
0.560131000,1,0,0
0.570111000,0,0,0
0.570133000,0,1,0
0.580113000,0,0,0
0.580136000,1,0,0
0.590117000,0,0,0
0.590142000,0,0,1
0.596085000,0,0,0
0.596114000,0,0,1
0.600132000,0,0,0
0.600146000,1,0,0
0.610123000,0,0,0
0.610145000,0,1,0
0.620125000,0,0,0
0.620148000,1,0,0
0.630128000,0,0,0
0.630150000,0,1,0
0.640130000,0,0,0
0.640152000,1,0,0
0.650134000,0,0,0
0.650160000,0,0,1
0.660182000,0,0,0
0.660196000,1,0,0
0.670172000,0,0,0
0.670194000,0,1,0
0.680176000,0,0,0
0.680198000,1,0,0
0.690178000,0,0,0
0.690200000,0,1,0
0.700180000,0,0,0
0.700203000,1,0,0
0.710183000,0,0,0
0.710208000,0,0,1
0.711151000,0,0,0
0.711180000,0,0,1
0.720199000,0,0,0
0.720213000,1,0,0
0.730190000,0,0,0
0.730212000,0,1,0
0.740192000,0,0,0
0.740215000,1,0,0
0.750195000,0,0,0
0.750217000,0,1,0
0.760197000,0,0,0
0.760220000,1,0,0
0.770201000,0,0,0
0.770227000,0,0,1
0.776202000,0,0,0
0.776231000,0,0,1
0.780250000,0,0,0
0.780264000,1,0,0
0.790240000,0,0,0
0.790262000,0,1,0
0.800242000,0,0,0
0.800265000,1,0,0
0.810246000,0,0,0
0.810268000,0,1,0
0.820248000,0,0,0
0.820271000,1,0,0
0.830251000,0,0,0
0.830276000,0,0,1
0.840300000,0,0,0
0.840314000,1,0,0
0.850290000,0,0,0
0.850312000,0,1,0
0.860293000,0,0,0
0.860316000,1,0,0
0.870296000,0,0,0
0.870318000,0,1,0
0.880298000,0,0,0
0.880320000,1,0,0
0.890301000,0,0,0
0.890326000,0,0,1
0.891235000,0,0,0
0.891263000,0,0,1
0.900283000,0,0,0
0.900298000,1,0,0
0.910273000,0,0,0
0.910296000,0,1,0
0.920277000,0,0,0
0.920299000,1,0,0
0.930279000,0,0,0
0.930302000,0,1,0
0.940282000,0,0,0
0.940304000,1,0,0
0.950285000,0,0,0
0.950310000,0,0,1
0.956253000,0,0,0
0.956282000,0,0,1
0.960300000,0,0,0
0.960314000,1,0,0
0.970291000,0,0,0
0.970314000,0,1,0
0.980294000,0,0,0
0.980316000,1,0,0
0.990296000,0,0,0
0.990319000,0,1,0
1.000299000,0,0,0
1.000321000,1,0,0
1.010302000,0,0,0
1.010328000,0,0,1
1.020351000,0,0,0
1.020365000,1,0,0
1.030341000,0,0,0
1.030363000,0,1,0
1.040344000,0,0,0
1.040366000,1,0,0
1.050347000,0,0,0
1.050369000,0,1,0
1.060349000,0,0,0
1.060371000,1,0,0
1.070351000,0,0,0
1.070377000,0,0,1
1.071319000,0,0,0
1.071348000,0,0,1
1.080367000,0,0,0
1.080382000,1,0,0
1.090359000,0,0,0
1.090381000,0,1,0
1.100361000,0,0,0
1.100383000,1,0,0
1.110363000,0,0,0
1.110386000,0,1,0
1.120366000,0,0,0
1.120388000,1,0,0
1.130369000,0,0,0
1.130396000,0,0,1
1.136371000,0,0,0
1.136400000,0,0,1
1.140418000,0,0,0
1.140433000,1,0,0
1.150408000,0,0,0
1.150431000,0,1,0
1.160411000,0,0,0
1.160433000,1,0,0
1.170414000,0,0,0
1.170437000,0,1,0
1.180417000,0,0,0
1.180439000,1,0,0
1.190419000,0,0,0
1.190444000,0,0,1
1.200468000,0,0,0
1.200482000,1,0,0
1.210458000,0,0,0
1.210481000,0,1,0
1.220462000,0,0,0
1.220484000,1,0,0
1.230464000,0,0,0
1.230487000,0,1,0
1.240467000,0,0,0
1.240489000,1,0,0
1.250469000,0,0,0
1.250494000,0,0,1
1.251403000,0,0,0
1.251432000,0,0,1
1.260452000,0,0,0
1.260466000,1,0,0
1.270442000,0,0,0
1.270464000,0,1,0
1.280445000,0,0,0
1.280468000,1,0,0
1.290448000,0,0,0
1.290470000,0,1,0
1.300450000,0,0,0
1.300473000,1,0,0
1.310454000,0,0,0
1.310479000,0,0,1
1.316422000,0,0,0
1.316451000,0,0,1
1.320469000,0,0,0
1.320483000,1,0,0
1.330460000,0,0,0
1.330482000,0,1,0
1.340462000,0,0,0
1.340485000,1,0,0
1.350465000,0,0,0
1.350487000,0,1,0
1.360467000,0,0,0
1.360490000,1,0,0
1.370471000,0,0,0
1.370497000,0,0,1
1.380519000,0,0,0
1.380533000,1,0,0
1.390509000,0,0,0
1.390532000,0,1,0
1.400513000,0,0,0
1.400535000,1,0,0
1.410515000,0,0,0
1.410538000,0,1,0
1.420518000,0,0,0
1.420540000,1,0,0
1.430520000,0,0,0
1.430545000,0,0,1
1.431488000,0,0,0
1.431517000,0,0,1
1.440536000,0,0,0
1.440550000,1,0,0
1.450527000,0,0,0
1.450550000,0,1,0
1.460530000,0,0,0
1.460552000,1,0,0
1.470532000,0,0,0
1.470554000,0,1,0
1.480534000,0,0,0
1.480557000,1,0,0
1.490538000,0,0,0
1.490564000,0,0,1
1.496539000,0,0,0
1.496568000,0,0,1
1.500587000,0,0,0
1.500601000,1,0,0
1.510577000,0,0,0
1.510599000,0,1,0
1.520579000,0,0,0
1.520602000,1,0,0
1.530583000,0,0,0
1.530605000,0,1,0
1.540585000,0,0,0
1.540608000,1,0,0
1.550588000,0,0,0
1.550613000,0,0,1
1.560637000,0,0,0
1.560651000,1,0,0
1.570627000,0,0,0
1.570649000,0,1,0
1.580630000,0,0,0
1.580653000,1,0,0
1.590633000,0,0,0
1.590655000,0,1,0
1.600635000,0,0,0
1.600658000,1,0,0
1.610638000,0,0,0
1.610663000,0,0,1
1.611572000,0,0,0
1.611600000,0,0,1
1.620620000,0,0,0
1.620635000,1,0,0
1.630610000,0,0,0
1.630633000,0,1,0
1.640614000,0,0,0
1.640636000,1,0,0
1.650616000,0,0,0
1.650639000,0,1,0
1.660619000,0,0,0
1.660641000,1,0,0
1.670622000,0,0,0
1.670648000,0,0,1
1.676591000,0,0,0
1.676619000,0,0,1
1.680637000,0,0,0
1.680652000,1,0,0
1.690628000,0,0,0
1.690651000,0,1,0
1.700631000,0,0,0
1.700653000,1,0,0
1.710633000,0,0,0
1.710656000,0,1,0
1.720636000,0,0,0
1.720658000,1,0,0
1.730639000,0,0,0
1.730665000,0,0,1
1.740688000,0,0,0
1.740702000,1,0,0
1.750678000,0,0,0
1.750700000,0,1,0
1.760681000,0,0,0
1.760704000,1,0,0
1.770684000,0,0,0
1.770706000,0,1,0
1.780686000,0,0,0
1.780708000,1,0,0
1.790689000,0,0,0
1.790714000,0,0,1
1.791656000,0,0,0
1.791685000,0,0,1
1.800704000,0,0,0
1.800719000,1,0,0
1.810696000,0,0,0
1.810718000,0,1,0
1.820698000,0,0,0
1.820720000,1,0,0
1.830701000,0,0,0
1.830723000,0,1,0
1.840703000,0,0,0
1.840725000,1,0,0
1.850706000,0,0,0
1.850733000,0,0,1
1.856708000,0,0,0
1.856737000,0,0,1
1.860755000,0,0,0
1.860770000,1,0,0
1.870746000,0,0,0
1.870768000,0,1,0
1.880748000,0,0,0
1.880770000,1,0,0
1.890751000,0,0,0
1.890774000,0,1,0
1.900754000,0,0,0
1.900776000,1,0,0
1.910756000,0,0,0
1.910782000,0,0,1
1.920805000,0,0,0
1.920820000,1,0,0
1.930795000,0,0,0
1.930822000,0,1,0
1.939844000,0,0,0
1.939859000,1,0,0
1.949834000,0,0,0
1.949855000,0,1,0
1.950801000,0,0,0
1.950828000,0,1,0
1.959850000,0,0,0
1.959864000,1,0,0
1.969840000,0,0,0
1.969861000,0,1,0
1.970807000,0,0,0
1.970832000,0,0,1
1.971741000,0,0,0
1.971770000,0,0,1
1.980790000,0,0,0
1.980804000,1,0,0
1.990780000,0,0,0
1.990802000,0,1,0
2.000783000,0,0,0
2.000806000,1,0,0
2.010786000,0,0,0
2.010808000,0,1,0
2.020788000,0,0,0
2.020811000,1,0,0
2.030791000,0,0,0
2.030816000,0,0,1
2.036760000,0,0,0
2.036789000,0,0,1
2.040807000,0,0,0
2.040821000,1,0,0
2.050798000,0,0,0
2.050820000,0,1,0
2.060800000,0,0,0
2.060823000,1,0,0
2.070803000,0,0,0
2.070825000,0,1,0
2.080805000,0,0,0
2.080827000,1,0,0
2.090809000,0,0,0
2.090833000,0,0,1
2.100857000,0,0,0
2.100871000,1,0,0
2.110847000,0,0,0
2.110874000,0,1,0
2.119896000,0,0,0
2.119910000,1,0,0
2.129886000,0,0,0
2.129907000,0,1,0
2.130853000,0,0,0
2.130880000,0,1,0
2.139902000,0,0,0
2.139916000,1,0,0
2.149892000,0,0,0
2.149913000,0,1,0
2.150859000,0,0,0
2.150884000,0,0,1
2.151827000,0,0,0
2.151856000,0,0,1
2.160875000,0,0,0
2.160889000,1,0,0
2.170866000,0,0,0
2.170893000,0,1,0
2.179913000,0,0,0
2.179928000,1,0,0
2.189905000,0,0,0
2.189925000,0,1,0
2.190872000,0,0,0
2.190898000,0,1,0
2.199919000,0,0,0
2.199934000,1,0,0
2.209911000,0,0,0
2.209931000,0,1,0
2.210878000,0,0,0
2.210902000,0,0,1
2.216879000,0,0,0
2.216908000,0,0,1
2.219926000,0,0,0
2.219940000,1,0,0
2.229917000,0,0,0
2.229939000,0,1,0
2.239919000,0,0,0
2.239942000,1,0,0
2.249922000,0,0,0
2.249944000,0,1,0
2.259924000,0,0,0
2.259946000,1,0,0
2.269928000,0,0,0
2.269953000,0,0,1
2.279976000,0,0,0
2.279990000,1,0,0
2.289967000,0,0,0
2.289989000,0,1,0
2.299969000,0,0,0
2.299992000,1,0,0
2.309972000,0,0,0
2.309994000,0,1,0
2.319974000,0,0,0
2.319997000,1,0,0
2.329978000,0,0,0
2.330002000,0,0,1
2.331944000,0,0,0
2.331973000,0,0,1
2.339993000,0,0,0
2.340007000,1,0,0
2.349983000,0,0,0
2.350006000,0,1,0
2.359987000,0,0,0
2.360009000,1,0,0
2.369989000,0,0,0
2.370012000,0,1,0
2.379992000,0,0,0
2.380014000,1,0,0
2.389994000,0,0,0
2.390019000,0,0,1
2.396963000,0,0,0
2.396992000,0,0,1
2.400010000,0,0,0
2.400024000,1,0,0
2.410001000,0,0,0
2.410023000,0,1,0
2.420003000,0,0,0
2.420026000,1,0,0
2.430006000,0,0,0
2.430028000,0,1,0
2.440008000,0,0,0
2.440031000,1,0,0
2.450012000,0,0,0
2.450037000,0,0,1
2.460061000,0,0,0
2.460075000,1,0,0
2.470051000,0,0,0
2.470073000,0,1,0
2.480053000,0,0,0
2.480075000,1,0,0
2.490057000,0,0,0
2.490079000,0,1,0
2.500059000,0,0,0
2.500081000,1,0,0
2.510061000,0,0,0
2.510087000,0,0,1
2.512029000,0,0,0
2.512058000,0,0,1
2.520077000,0,0,0
2.520091000,1,0,0
2.530068000,0,0,0
2.530091000,0,1,0
2.540071000,0,0,0
2.540093000,1,0,0
2.550073000,0,0,0
2.550096000,0,1,0
2.560076000,0,0,0
2.560098000,1,0,0
2.570079000,0,0,0
2.570104000,0,0,1
2.577081000,0,0,0
2.577110000,0,0,1
2.580127000,0,0,0
2.580142000,1,0,0
2.590119000,0,0,0
2.590141000,0,1,0
2.600121000,0,0,0
2.600143000,1,0,0
2.610123000,0,0,0
2.610146000,0,1,0
2.620126000,0,0,0
2.620148000,1,0,0
2.630129000,0,0,0
2.630155000,0,0,1
2.640178000,0,0,0
2.640192000,1,0,0
2.650169000,0,0,0
2.650191000,0,1,0
2.660171000,0,0,0
2.660194000,1,0,0
2.670174000,0,0,0
2.670196000,0,1,0
2.680176000,0,0,0
2.680198000,1,0,0
2.690180000,0,0,0
2.690206000,0,0,1
2.692180000,0,0,0
2.692209000,0,0,1
2.700229000,0,0,0
2.700243000,1,0,0
2.710219000,0,0,0
2.710241000,0,1,0
2.720221000,0,0,0
2.720243000,1,0,0
2.730225000,0,0,0
2.730247000,0,1,0
2.740227000,0,0,0
2.740249000,1,0,0
2.750229000,0,0,0
2.750255000,0,0,1
2.757199000,0,0,0
2.757227000,0,0,1
2.760245000,0,0,0
2.760259000,1,0,0
2.770236000,0,0,0
2.770259000,0,1,0
2.780239000,0,0,0
2.780261000,1,0,0
2.790241000,0,0,0
2.790264000,0,1,0
2.800244000,0,0,0
2.800266000,1,0,0
2.810247000,0,0,0
2.810272000,0,0,1
2.820295000,0,0,0
2.820310000,1,0,0
2.830286000,0,0,0
2.830309000,0,1,0
2.840289000,0,0,0
2.840311000,1,0,0
2.850291000,0,0,0
2.850314000,0,1,0
2.860294000,0,0,0
2.860316000,1,0,0
2.870297000,0,0,0
2.870323000,0,0,1
2.872297000,0,0,0
2.872326000,0,0,1
2.880346000,0,0,0
2.880360000,1,0,0
2.890336000,0,0,0
2.890359000,0,1,0
2.900339000,0,0,0
2.900361000,1,0,0
2.910342000,0,0,0
2.910365000,0,1,0
2.920345000,0,0,0
2.920367000,1,0,0
2.930347000,0,0,0
2.930372000,0,0,1
2.937316000,0,0,0
2.937345000,0,0,1
2.940363000,0,0,0
2.940377000,1,0,0
2.950354000,0,0,0
2.950376000,0,1,0
2.960356000,0,0,0
2.960379000,1,0,0
2.970359000,0,0,0
2.970381000,0,1,0
2.980361000,0,0,0
2.980384000,1,0,0
2.990365000,0,0,0
2.990390000,0,0,1
3.000413000,0,0,0
3.000427000,1,0,0
3.010404000,0,0,0
3.010426000,0,1,0
3.020407000,0,0,0
3.020429000,1,0,0
3.030409000,0,0,0
3.030431000,0,1,0
3.040411000,0,0,0
3.040434000,1,0,0
3.050415000,0,0,0
3.050441000,0,0,1
3.052415000,0,0,0
3.052444000,0,0,1
3.060464000,0,0,0
3.060478000,1,0,0
3.070454000,0,0,0
3.070476000,0,1,0
3.080456000,0,0,0
3.080479000,1,0,0
3.090460000,0,0,0
3.090482000,0,1,0
3.100462000,0,0,0
3.100485000,1,0,0
3.110465000,0,0,0
3.110490000,0,0,1
3.117434000,0,0,0
3.117463000,0,0,1
3.120480000,0,0,0
3.120495000,1,0,0
3.130471000,0,0,0
3.130494000,0,1,0
3.140474000,0,0,0
3.140496000,1,0,0
3.150476000,0,0,0
3.150499000,0,1,0
3.160479000,0,0,0
3.160501000,1,0,0
3.170482000,0,0,0
3.170507000,0,0,1
3.180530000,0,0,0
3.180545000,1,0,0
3.190522000,0,0,0
3.190544000,0,1,0
3.200524000,0,0,0
3.200546000,1,0,0
3.210527000,0,0,0
3.210549000,0,1,0
3.220529000,0,0,0
3.220551000,1,0,0
3.230532000,0,0,0
3.230559000,0,0,1
3.232533000,0,0,0
3.232561000,0,0,1
3.240581000,0,0,0
3.240596000,1,0,0
3.250571000,0,0,0
3.250594000,0,1,0
3.260574000,0,0,0
3.260596000,1,0,0
3.270577000,0,0,0
3.270600000,0,1,0
3.280580000,0,0,0
3.280602000,1,0,0
3.290582000,0,0,0
3.290607000,0,0,1
3.297552000,0,0,0
3.297580000,0,0,1
3.300598000,0,0,0
3.300612000,1,0,0
3.310589000,0,0,0
3.310611000,0,1,0
3.320592000,0,0,0
3.320614000,1,0,0
3.330594000,0,0,0
3.330616000,0,1,0
3.340596000,0,0,0
3.340619000,1,0,0
3.350600000,0,0,0
3.350625000,0,0,1
3.360648000,0,0,0
3.360662000,1,0,0
3.370639000,0,0,0
3.370662000,0,1,0
3.380642000,0,0,0
3.380664000,1,0,0
3.390644000,0,0,0
3.390667000,0,1,0
3.400647000,0,0,0
3.400669000,1,0,0
3.410650000,0,0,0
3.410676000,0,0,1
3.412650000,0,0,0
3.412679000,0,0,1
3.420699000,0,0,0
3.420713000,1,0,0
3.430689000,0,0,0
3.430711000,0,1,0
3.440692000,0,0,0
3.440714000,1,0,0
3.450695000,0,0,0
3.450717000,0,1,0
3.460698000,0,0,0
3.460720000,1,0,0
3.470700000,0,0,0
3.470725000,0,0,1
3.477669000,0,0,0
3.477698000,0,0,1
3.480715000,0,0,0
3.480730000,1,0,0
3.490707000,0,0,0
3.490729000,0,1,0
3.500709000,0,0,0
3.500731000,1,0,0
3.510712000,0,0,0
3.510734000,0,1,0
3.520714000,0,0,0
3.520736000,1,0,0
3.530718000,0,0,0
3.530743000,0,0,1
3.540766000,0,0,0
3.540780000,1,0,0
3.550757000,0,0,0
3.550779000,0,1,0
3.560759000,0,0,0
3.560782000,1,0,0
3.570762000,0,0,0
3.570784000,0,1,0
3.580764000,0,0,0
3.580787000,1,0,0
3.590768000,0,0,0
3.590794000,0,0,1
3.592768000,0,0,0
3.592797000,0,0,1
3.600817000,0,0,0
3.600831000,1,0,0
3.610807000,0,0,0
3.610829000,0,1,0
3.620809000,0,0,0
3.620831000,1,0,0
3.630813000,0,0,0
3.630835000,0,1,0
3.640815000,0,0,0
3.640837000,1,0,0
3.650818000,0,0,0
3.650843000,0,0,1
3.657787000,0,0,0
3.657816000,0,0,1
3.660833000,0,0,0
3.660847000,1,0,0
3.670824000,0,0,0
3.670847000,0,1,0
3.680827000,0,0,0
3.680849000,1,0,0
3.690829000,0,0,0
3.690852000,0,1,0
3.700832000,0,0,0
3.700854000,1,0,0
3.710835000,0,0,0
3.710860000,0,0,1
3.720883000,0,0,0
3.720898000,1,0,0
3.730874000,0,0,0
3.730897000,0,1,0
3.740877000,0,0,0
3.740899000,1,0,0
3.750879000,0,0,0
3.750902000,0,1,0
3.760882000,0,0,0
3.760904000,1,0,0
3.770885000,0,0,0
3.770911000,0,0,1
3.772886000,0,0,0
3.772914000,0,0,1
3.780934000,0,0,0
3.780949000,1,0,0
3.790924000,0,0,0
3.790947000,0,1,0
3.800927000,0,0,0
3.800949000,1,0,0
3.810930000,0,0,0
3.810953000,0,1,0
3.820933000,0,0,0
3.820955000,1,0,0
3.830935000,0,0,0
3.830960000,0,0,1
3.837904000,0,0,0
3.837933000,0,0,1
3.840951000,0,0,0
3.840965000,1,0,0
3.850942000,0,0,0
3.850964000,0,1,0
3.860944000,0,0,0
3.860967000,1,0,0
3.870947000,0,0,0
3.870969000,0,1,0
3.880949000,0,0,0
3.880972000,1,0,0
3.890953000,0,0,0
3.890978000,0,0,1
3.901001000,0,0,0
3.901015000,1,0,0
3.910992000,0,0,0
3.911015000,0,1,0
3.920995000,0,0,0
3.921017000,1,0,0
3.930997000,0,0,0
3.931019000,0,1,0
3.940999000,0,0,0
3.941022000,1,0,0
3.951003000,0,0,0
3.951029000,0,0,1
3.953003000,0,0,0
3.953032000,0,0,1
3.961052000,0,0,0
3.961066000,1,0,0
3.971042000,0,0,0
3.971064000,0,1,0
3.981044000,0,0,0
3.981067000,1,0,0
3.991048000,0,0,0
3.991070000,0,1,0
4.001050000,0,0,0
4.001073000,1,0,0
4.011053000,0,0,0
4.011078000,0,0,1
4.018022000,0,0,0
4.018051000,0,0,1
4.021068000,0,0,0
4.021083000,1,0,0
4.031060000,0,0,0
4.031082000,0,1,0
4.041062000,0,0,0
4.041084000,1,0,0
4.051064000,0,0,0
4.051087000,0,1,0
4.061067000,0,0,0
4.061089000,1,0,0
4.071070000,0,0,0
4.071095000,0,0,1
4.081119000,0,0,0
4.081133000,1,0,0
4.091110000,0,0,0
4.091132000,0,1,0
4.101112000,0,0,0
4.101135000,1,0,0
4.111115000,0,0,0
4.111137000,0,1,0
4.121117000,0,0,0
4.121139000,1,0,0
4.131121000,0,0,0
4.131147000,0,0,1
4.133121000,0,0,0
4.133149000,0,0,1
4.141169000,0,0,0
4.141184000,1,0,0
4.151160000,0,0,0
4.151182000,0,1,0
4.161162000,0,0,0
4.161184000,1,0,0
4.171166000,0,0,0
4.171188000,0,1,0
4.181168000,0,0,0
4.181190000,1,0,0
4.191170000,0,0,0
4.191196000,0,0,1
4.198140000,0,0,0
4.198168000,0,0,1
4.201186000,0,0,0
4.201200000,1,0,0
4.211177000,0,0,0
4.211200000,0,1,0
4.221180000,0,0,0
4.221202000,1,0,0
4.231182000,0,0,0
4.231204000,0,1,0
4.241185000,0,0,0
4.241207000,1,0,0
4.251188000,0,0,0
4.251213000,0,0,1
4.261236000,0,0,0
4.261251000,1,0,0
4.271227000,0,0,0
4.271250000,0,1,0
4.281230000,0,0,0
4.281252000,1,0,0
4.291232000,0,0,0
4.291255000,0,1,0
4.301235000,0,0,0
4.301257000,1,0,0
4.311238000,0,0,0
4.311264000,0,0,1
4.313238000,0,0,0
4.313267000,0,0,1
4.321287000,0,0,0
4.321301000,1,0,0
4.331277000,0,0,0
4.331300000,0,1,0
4.341280000,0,0,0
4.341302000,1,0,0
4.351283000,0,0,0
4.351306000,0,1,0
4.361286000,0,0,0
4.361308000,1,0,0
4.371288000,0,0,0
4.371313000,0,0,1
4.378257000,0,0,0
4.378286000,0,0,1
4.381304000,0,0,0
4.381318000,1,0,0
4.391295000,0,0,0
4.391317000,0,1,0
4.401297000,0,0,0
4.401320000,1,0,0
4.411300000,0,0,0
4.411322000,0,1,0
4.421302000,0,0,0
4.421325000,1,0,0
4.431306000,0,0,0
4.431331000,0,0,1
4.441354000,0,0,0
4.441368000,1,0,0
4.451345000,0,0,0
4.451368000,0,1,0
4.461348000,0,0,0
4.461370000,1,0,0
4.471350000,0,0,0
4.471372000,0,1,0
4.481352000,0,0,0
4.481375000,1,0,0
4.491356000,0,0,0
4.491382000,0,0,1
4.493356000,0,0,0
4.493385000,0,0,1
4.501405000,0,0,0
4.501419000,1,0,0
4.511395000,0,0,0
4.511417000,0,1,0
4.521397000,0,0,0
4.521420000,1,0,0
4.531401000,0,0,0
4.531423000,0,1,0
4.541403000,0,0,0
4.541426000,1,0,0
4.551406000,0,0,0
4.551431000,0,0,1
4.558375000,0,0,0
4.558404000,0,0,1
4.561421000,0,0,0
4.561436000,1,0,0
4.571413000,0,0,0
4.571435000,0,1,0
4.581415000,0,0,0
4.581437000,1,0,0
4.591418000,0,0,0
4.591440000,0,1,0
4.601420000,0,0,0
4.601442000,1,0,0
4.611424000,0,0,0
4.611449000,0,0,1
4.621472000,0,0,0
4.621486000,1,0,0
4.631463000,0,0,0
4.631485000,0,1,0
4.641465000,0,0,0
4.641488000,1,0,0
4.651468000,0,0,0
4.651490000,0,1,0
4.661470000,0,0,0
4.661493000,1,0,0
4.671474000,0,0,0
4.671500000,0,0,1
4.673474000,0,0,0
4.673503000,0,0,1
4.681523000,0,0,0
4.681537000,1,0,0
4.691513000,0,0,0
4.691535000,0,1,0
4.701515000,0,0,0
4.701537000,1,0,0
4.711519000,0,0,0
4.711541000,0,1,0
4.721521000,0,0,0
4.721543000,1,0,0
4.731524000,0,0,0
4.731549000,0,0,1
4.738493000,0,0,0
4.738522000,0,0,1
4.741539000,0,0,0
4.741553000,1,0,0
4.751530000,0,0,0
4.751553000,0,1,0
4.761533000,0,0,0
4.761555000,1,0,0
4.771535000,0,0,0
4.771558000,0,1,0
4.781538000,0,0,0
4.781560000,1,0,0
4.791541000,0,0,0
4.791566000,0,0,1
4.801589000,0,0,0
4.801604000,1,0,0
4.811581000,0,0,0
4.811603000,0,1,0
4.821583000,0,0,0
4.821605000,1,0,0
4.831585000,0,0,0
4.831608000,0,1,0
4.841588000,0,0,0
4.841610000,1,0,0
4.851591000,0,0,0
4.851618000,0,0,1
4.853592000,0,0,0
4.853620000,0,0,1
4.861640000,0,0,0
4.861655000,1,0,0
4.871630000,0,0,0
4.871657000,0,1,0
4.880679000,0,0,0
4.880694000,1,0,0
4.890669000,0,0,0
4.890690000,0,1,0
4.891636000,0,0,0
4.891663000,0,1,0
4.900685000,0,0,0
4.900700000,1,0,0
4.910675000,0,0,0
4.910696000,0,1,0
4.911642000,0,0,0
4.911667000,0,0,1
4.918611000,0,0,0
