Time [s],Channel 0,Channel 1,Channel 2,Channel 7
0.000000000,0,0,1,1
0.001368000,0,0,0,1
0.001369000,0,0,0,0
0.001375000,0,0,0,1
0.001387000,0,0,1,1
0.006324000,0,0,0,1
0.006335000,0,0,0,0
0.006340000,0,0,0,1
0.006349000,1,0,0,1
0.016328000,0,0,0,1
0.016336000,0,0,0,0
0.016343000,0,0,0,1
0.016352000,0,1,0,1
0.026331000,0,0,0,1
0.026339000,0,0,0,0
0.026345000,0,0,0,1
0.026354000,1,0,0,1
0.036333000,0,0,0,1
0.036341000,0,0,0,0
0.036348000,0,0,0,1
0.036356000,1,0,0,1
0.046336000,0,0,0,1
0.046344000,0,0,0,0
0.046350000,0,0,0,1
0.046359000,0,1,0,1
0.056338000,0,0,0,1
0.056346000,0,0,0,0
0.056353000,0,0,0,1
0.056366000,0,0,1,1
0.066386000,0,0,0,1
0.066388000,0,0,0,0
0.066393000,0,0,0,1
0.066405000,0,0,1,1
0.071344000,0,0,0,1
0.071354000,0,0,0,0
0.071360000,0,0,0,1
0.071369000,1,0,0,1
0.081346000,0,0,0,1
0.081355000,0,0,0,0
0.081361000,0,0,0,1
0.081370000,0,1,0,1
0.091349000,0,0,0,1
0.091357000,0,0,0,0
0.091364000,0,0,0,1
0.091372000,1,0,0,1
0.101351000,0,0,0,1
0.101360000,0,0,0,0
0.101366000,0,0,0,1
0.101375000,1,0,0,1
0.111354000,0,0,0,1
0.111362000,0,0,0,0
0.111369000,0,0,0,1
0.111378000,0,1,0,1
0.121357000,0,0,0,1
0.121365000,0,0,0,0
0.121371000,0,0,0,1
0.121385000,0,0,1,1
0.131405000,0,0,0,1
0.131407000,0,0,0,0
0.131412000,0,0,0,1
0.131424000,0,0,1,1
0.136362000,0,0,0,1
0.136373000,0,0,0,0
0.136379000,0,0,0,1
0.136388000,1,0,0,1
0.146365000,0,0,0,1
0.146373000,0,0,0,0
0.146380000,0,0,0,1
0.146388000,0,1,0,1
0.156367000,0,0,0,1
0.156376000,0,0,0,0
0.156382000,0,0,0,1
0.156391000,1,0,0,1
0.166370000,0,0,0,1
0.166378000,0,0,0,0
0.166384000,0,0,0,1
0.166393000,1,0,0,1
0.176374000,0,0,0,1
0.176382000,0,0,0,0
0.176388000,0,0,0,1
0.176397000,0,1,0,1
0.186376000,0,0,0,1
0.186385000,0,0,0,0
0.186391000,0,0,0,1
0.186405000,0,0,1,1
0.196423000,0,0,0,1
0.196425000,0,0,0,0
0.196431000,0,0,0,1
0.196444000,0,0,1,1
0.201381000,0,0,0,1
0.201391000,0,0,0,0
0.201397000,0,0,0,1
0.201406000,1,0,0,1
0.211383000,0,0,0,1
0.211392000,0,0,0,0
0.211398000,0,0,0,1
0.211407000,0,1,0,1
0.221386000,0,0,0,1
0.221394000,0,0,0,0
0.221400000,0,0,0,1
0.221409000,1,0,0,1
0.231390000,0,0,0,1
0.231398000,0,0,0,0
0.231404000,0,0,0,1
0.231413000,1,0,0,1
0.241392000,0,0,0,1
0.241401000,0,0,0,0
0.241407000,0,0,0,1
0.241416000,0,1,0,1
0.251395000,0,0,0,1
0.251403000,0,0,0,0
0.251409000,0,0,0,1
0.251423000,0,0,1,1
0.261443000,0,0,0,1
0.261445000,0,0,0,0
0.261450000,0,0,0,1
0.261462000,0,0,1,1
0.266399000,0,0,0,1
0.266410000,0,0,0,0
0.266416000,0,0,0,1
0.266424000,1,0,0,1
0.276402000,0,0,0,1
0.276410000,0,0,0,0
0.276416000,0,0,0,1
0.276425000,0,1,0,1
0.286406000,0,0,0,1
0.286414000,0,0,0,0
0.286420000,0,0,0,1
0.286429000,1,0,0,1
0.296408000,0,0,0,1
0.296416000,0,0,0,0
0.296423000,0,0,0,1
0.296432000,1,0,0,1
0.306411000,0,0,0,1
0.306419000,0,0,0,0
0.306425000,0,0,0,1
0.306434000,0,1,0,1
0.316413000,0,0,0,1
0.316421000,0,0,0,0
0.316428000,0,0,0,1
0.316441000,0,0,1,1
0.326461000,0,0,0,1
0.326463000,0,0,0,0
0.326469000,0,0,0,1
0.326480000,0,0,1,1
0.331417000,0,0,0,1
0.331428000,0,0,0,0
0.331434000,0,0,0,1
0.331443000,1,0,0,1
0.341422000,0,0,0,1
0.341430000,0,0,0,0
0.341436000,0,0,0,1
0.341445000,0,1,0,1
0.351424000,0,0,0,1
0.351432000,0,0,0,0
0.351439000,0,0,0,1
0.351447000,1,0,0,1
0.361427000,0,0,0,1
0.361435000,0,0,0,0
0.361441000,0,0,0,1
0.361450000,1,0,0,1
0.371429000,0,0,0,1
0.371437000,0,0,0,0
0.371444000,0,0,0,1
0.371453000,0,1,0,1
0.381432000,0,0,0,1
0.381440000,0,0,0,0
0.381446000,0,0,0,1
0.381460000,0,0,1,1
0.391480000,0,0,0,1
0.391481000,0,0,0,0
0.391487000,0,0,0,1
0.391499000,0,0,1,1
0.396437000,0,0,0,1
0.396448000,0,0,0,0
0.396454000,0,0,0,1
0.396463000,1,0,0,1
0.406440000,0,0,0,1
0.406448000,0,0,0,0
0.406455000,0,0,0,1
0.406464000,0,1,0,1
0.416442000,0,0,0,1
0.416451000,0,0,0,0
0.416457000,0,0,0,1
0.416466000,1,0,0,1
0.426445000,0,0,0,1
0.426453000,0,0,0,0
0.426460000,0,0,0,1
0.426468000,1,0,0,1
0.436447000,0,0,0,1
0.436456000,0,0,0,0
0.436462000,0,0,0,1
0.436471000,0,1,0,1
0.446451000,0,0,0,1
0.446460000,0,0,0,0
0.446466000,0,0,0,1
0.446480000,0,0,1,1
0.456498000,0,0,0,1
0.456500000,0,0,0,0
0.456506000,0,0,0,1
0.456517000,0,0,1,1
0.461456000,0,0,0,1
0.461466000,0,0,0,0
0.461472000,0,0,0,1
0.461481000,1,0,0,1
0.471458000,0,0,0,1
0.471467000,0,0,0,0
0.471473000,0,0,0,1
0.471482000,0,1,0,1
0.481461000,0,0,0,1
0.481469000,0,0,0,0
0.481476000,0,0,0,1
0.481484000,1,0,0,1
0.491463000,0,0,0,1
0.491472000,0,0,0,0
0.491478000,0,0,0,1
0.491487000,1,0,0,1
0.501467000,0,0,0,1
0.501476000,0,0,0,0
0.501482000,0,0,0,1
0.501491000,0,1,0,1
0.511470000,0,0,0,1
0.511478000,0,0,0,0
0.511485000,0,0,0,1
0.511498000,0,0,1,1
0.521517000,0,0,0,1
0.521519000,0,0,0,0
0.521525000,0,0,0,1
0.521537000,0,0,1,1
0.526474000,0,0,0,1
0.526485000,0,0,0,0
0.526491000,0,0,0,1
0.526499000,1,0,0,1
0.536477000,0,0,0,1
0.536485000,0,0,0,0
0.536491000,0,0,0,1
0.536500000,0,1,0,1
0.546481000,0,0,0,1
0.546489000,0,0,0,0
0.546495000,0,0,0,1
0.546504000,1,0,0,1
0.556483000,0,0,0,1
0.556491000,0,0,0,0
0.556498000,0,0,0,1
0.556507000,1,0,0,1
0.566486000,0,0,0,1
0.566494000,0,0,0,0
0.566500000,0,0,0,1
0.566509000,0,1,0,1
0.576488000,0,0,0,1
0.576496000,0,0,0,0
0.576503000,0,0,0,1
0.576516000,0,0,1,1
0.586536000,0,0,0,1
0.586538000,0,0,0,0
0.586544000,0,0,0,1
0.586555000,0,0,1,1
0.591492000,0,0,0,1
0.591503000,0,0,0,0
0.591509000,0,0,0,1
0.591518000,1,0,0,1
0.601497000,0,0,0,1
0.601505000,0,0,0,0
0.601511000,0,0,0,1
0.601520000,0,1,0,1
0.611499000,0,0,0,1
0.611507000,0,0,0,0
0.611514000,0,0,0,1
0.611523000,1,0,0,1
0.621502000,0,0,0,1
0.621510000,0,0,0,0
0.621516000,0,0,0,1
0.621525000,1,0,0,1
0.631504000,0,0,0,1
0.631512000,0,0,0,0
0.631519000,0,0,0,1
0.631528000,0,1,0,1
0.641507000,0,0,0,1
0.641515000,0,0,0,0
0.641521000,0,0,0,1
0.641535000,0,0,1,1
0.651554000,0,0,0,1
0.651556000,0,0,0,0
0.651562000,0,0,0,1
0.651574000,0,0,1,1
0.656512000,0,0,0,1
0.656523000,0,0,0,0
0.656529000,0,0,0,1
0.656538000,1,0,0,1
0.666515000,0,0,0,1
0.666523000,0,0,0,0
0.666530000,0,0,0,1
0.666539000,0,1,0,1
0.676517000,0,0,0,1
0.676526000,0,0,0,0
0.676532000,0,0,0,1
0.676541000,1,0,0,1
0.686520000,0,0,0,1
0.686528000,0,0,0,0
0.686535000,0,0,0,1
0.686543000,1,0,0,1
0.696522000,0,0,0,1
0.696531000,0,0,0,0
0.696537000,0,0,0,1
0.696546000,0,1,0,1
0.706525000,0,0,0,1
0.706533000,0,0,0,0
0.706540000,0,0,0,1
0.706553000,0,0,1,1
0.716573000,0,0,0,1
0.716575000,0,0,0,0
0.716581000,0,0,0,1
0.716592000,0,0,1,1
0.721531000,0,0,0,1
0.721541000,0,0,0,0
0.721547000,0,0,0,1
0.721556000,1,0,0,1
0.731533000,0,0,0,1
0.731542000,0,0,0,0
0.731548000,0,0,0,1
0.731557000,0,1,0,1
0.741536000,0,0,0,1
0.741544000,0,0,0,0
0.741550000,0,0,0,1
0.741559000,1,0,0,1
0.751538000,0,0,0,1
0.751547000,0,0,0,0
0.751553000,0,0,0,1
0.751562000,1,0,0,1
0.761542000,0,0,0,1
0.761551000,0,0,0,0
0.761557000,0,0,0,1
0.761566000,0,1,0,1
0.771545000,0,0,0,1
0.771553000,0,0,0,0
0.771560000,0,0,0,1
0.771573000,0,0,1,1
0.781592000,0,0,0,1
0.781594000,0,0,0,0
0.781599000,0,0,0,1
0.781612000,0,0,1,1
0.786549000,0,0,0,1
0.786560000,0,0,0,0
0.786566000,0,0,0,1
0.786575000,1,0,0,1
0.796552000,0,0,0,1
0.796560000,0,0,0,0
0.796567000,0,0,0,1
0.796575000,0,1,0,1
0.806554000,0,0,0,1
0.806563000,0,0,0,0
0.806569000,0,0,0,1
0.806578000,1,0,0,1
0.816558000,0,0,0,1
0.816567000,0,0,0,0
0.816573000,0,0,0,1
0.816582000,1,0,0,1
0.826561000,0,0,0,1
0.826569000,0,0,0,0
0.826575000,0,0,0,1
0.826584000,0,1,0,1
0.836563000,0,0,0,1
0.836572000,0,0,0,0
0.836578000,0,0,0,1
0.836591000,0,0,1,1
0.846611000,0,0,0,1
0.846613000,0,0,0,0
0.846619000,0,0,0,1
0.846630000,0,0,1,1
0.851568000,0,0,0,1
0.851578000,0,0,0,0
0.851584000,0,0,0,1
0.851593000,1,0,0,1
0.861570000,0,0,0,1
0.861579000,0,0,0,0
0.861585000,0,0,0,1
0.861594000,0,1,0,1
0.871574000,0,0,0,1
0.871582000,0,0,0,0
0.871589000,0,0,0,1
0.871598000,1,0,0,1
0.881577000,0,0,0,1
0.881585000,0,0,0,0
0.881591000,0,0,0,1
0.881600000,1,0,0,1
0.891579000,0,0,0,1
0.891587000,0,0,0,0
0.891594000,0,0,0,1
0.891603000,0,1,0,1
0.901582000,0,0,0,1
0.901590000,0,0,0,0
0.901596000,0,0,0,1
0.901610000,0,0,1,1
0.911630000,0,0,0,1
0.911631000,0,0,0,0
0.911637000,0,0,0,1
0.911649000,0,0,1,1
0.916586000,0,0,0,1
0.916597000,0,0,0,0
0.916602000,0,0,0,1
0.916611000,1,0,0,1
0.926590000,0,0,0,1
0.926598000,0,0,0,0
0.926605000,0,0,0,1
0.926614000,0,1,0,1
0.936593000,0,0,0,1
0.936601000,0,0,0,0
0.936607000,0,0,0,1
0.936616000,1,0,0,1
0.946595000,0,0,0,1
0.946603000,0,0,0,0
0.946610000,0,0,0,1
0.946619000,1,0,0,1
0.956598000,0,0,0,1
0.956606000,0,0,0,0
0.956612000,0,0,0,1
0.956621000,0,1,0,1
0.966600000,0,0,0,1
0.966608000,0,0,0,0
0.966615000,0,0,0,1
0.966628000,0,0,1,1
0.976648000,0,0,0,1
0.976650000,0,0,0,0
0.976656000,0,0,0,1
0.976667000,0,0,1,1
0.981606000,0,0,0,1
0.981617000,0,0,0,0
0.981622000,0,0,0,1
0.981631000,1,0,0,1
0.991609000,0,0,0,1
0.991617000,0,0,0,0
0.991623000,0,0,0,1
0.991632000,0,1,0,1
1.001611000,0,0,0,1
1.001619000,0,0,0,0
1.001626000,0,0,0,1
1.001634000,1,0,0,1
1.011613000,0,0,0,1
1.011622000,0,0,0,0
1.011628000,0,0,0,1
1.011637000,1,0,0,1
1.021616000,0,0,0,1
1.021624000,0,0,0,0
1.021631000,0,0,0,1
1.021640000,0,1,0,1
1.031620000,0,0,0,1
1.031628000,0,0,0,0
1.031635000,0,0,0,1
1.031648000,0,0,1,1
1.041667000,0,0,0,1
1.041669000,0,0,0,0
1.041674000,0,0,0,1
1.041686000,0,0,1,1
1.046624000,0,0,0,1
1.046635000,0,0,0,0
1.046641000,0,0,0,1
1.046650000,1,0,0,1
1.056627000,0,0,0,1
1.056635000,0,0,0,0
1.056642000,0,0,0,1
1.056651000,0,1,0,1
1.066629000,0,0,0,1
1.066638000,0,0,0,0
1.066644000,0,0,0,1
1.066653000,1,0,0,1
1.076632000,0,0,0,1
1.076640000,0,0,0,0
1.076647000,0,0,0,1
1.076655000,1,0,0,1
1.086636000,0,0,0,1
1.086644000,0,0,0,0
1.086650000,0,0,0,1
1.086659000,0,1,0,1
1.096638000,0,0,0,1
1.096647000,0,0,0,0
1.096653000,0,0,0,1
1.096667000,0,0,1,1
1.106686000,0,0,0,1
1.106687000,0,0,0,0
1.106693000,0,0,0,1
1.106706000,0,0,1,1
1.111643000,0,0,0,1
1.111653000,0,0,0,0
1.111659000,0,0,0,1
1.111668000,1,0,0,1
1.121645000,0,0,0,1
1.121654000,0,0,0,0
1.121660000,0,0,0,1
1.121669000,0,1,0,1
1.131649000,0,0,0,1
1.131657000,0,0,0,0
1.131664000,0,0,0,1
1.131673000,1,0,0,1
1.141652000,0,0,0,1
1.141660000,0,0,0,0
1.141666000,0,0,0,1
1.141675000,1,0,0,1
1.151654000,0,0,0,1
1.151662000,0,0,0,0
1.151669000,0,0,0,1
1.151678000,0,1,0,1
1.161657000,0,0,0,1
1.161665000,0,0,0,0
1.161671000,0,0,0,1
1.161685000,0,0,1,1
1.171705000,0,0,0,1
1.171706000,0,0,0,0
1.171712000,0,0,0,1
1.171724000,0,0,1,1
1.176661000,0,0,0,1
1.176672000,0,0,0,0
1.176677000,0,0,0,1
1.176686000,1,0,0,1
1.186665000,0,0,0,1
1.186673000,0,0,0,0
1.186680000,0,0,0,1
1.186689000,0,1,0,1
1.196668000,0,0,0,1
1.196676000,0,0,0,0
1.196682000,0,0,0,1
1.196691000,1,0,0,1
1.206670000,0,0,0,1
1.206678000,0,0,0,0
1.206685000,0,0,0,1
1.206694000,1,0,0,1
1.216673000,0,0,0,1
1.216681000,0,0,0,0
1.216687000,0,0,0,1
1.216696000,0,1,0,1
1.226675000,0,0,0,1
1.226683000,0,0,0,0
1.226690000,0,0,0,1
1.226703000,0,0,1,1
1.236723000,0,0,0,1
1.236725000,0,0,0,0
1.236731000,0,0,0,1
1.236742000,0,0,1,1
1.241681000,0,0,0,1
1.241692000,0,0,0,0
1.241697000,0,0,0,1
1.241706000,1,0,0,1
1.251684000,0,0,0,1
1.251692000,0,0,0,0
1.251698000,0,0,0,1
1.251707000,0,1,0,1
1.261686000,0,0,0,1
1.261694000,0,0,0,0
1.261701000,0,0,0,1
1.261709000,1,0,0,1
1.271688000,0,0,0,1
1.271697000,0,0,0,0
1.271703000,0,0,0,1
1.271712000,1,0,0,1
1.281691000,0,0,0,1
1.281699000,0,0,0,0
1.281706000,0,0,0,1
1.281715000,0,1,0,1
1.291694000,0,0,0,1
1.291702000,0,0,0,0
1.291708000,0,0,0,1
1.291722000,0,0,1,1
1.301742000,0,0,0,1
1.301744000,0,0,0,0
1.301749000,0,0,0,1
1.301761000,0,0,1,1
1.306699000,0,0,0,1
1.306710000,0,0,0,0
1.306716000,0,0,0,1
1.306725000,1,0,0,1
1.316702000,0,0,0,1
1.316710000,0,0,0,0
1.316717000,0,0,0,1
1.316726000,0,1,0,1
1.326704000,0,0,0,1
1.326713000,0,0,0,0
1.326719000,0,0,0,1
1.326728000,1,0,0,1
1.336707000,0,0,0,1
1.336715000,0,0,0,0
1.336722000,0,0,0,1
1.336730000,1,0,0,1
1.346711000,0,0,0,1
1.346719000,0,0,0,0
1.346725000,0,0,0,1
1.346734000,0,1,0,1
1.356713000,0,0,0,1
1.356722000,0,0,0,0
1.356728000,0,0,0,1
1.356742000,0,0,1,1
1.366760000,0,0,0,1
1.366762000,0,0,0,0
1.366768000,0,0,0,1
1.366781000,0,0,1,1
1.371718000,0,0,0,1
1.371728000,0,0,0,0
1.371734000,0,0,0,1
1.371743000,1,0,0,1
1.381720000,0,0,0,1
1.381729000,0,0,0,0
1.381735000,0,0,0,1
1.381744000,0,1,0,1
1.391723000,0,0,0,1
1.391731000,0,0,0,0
1.391737000,0,0,0,1
1.391746000,1,0,0,1
1.401727000,0,0,0,1
1.401735000,0,0,0,0
1.401741000,0,0,0,1
1.401750000,1,0,0,1
1.411729000,0,0,0,1
1.411738000,0,0,0,0
1.411744000,0,0,0,1
1.411753000,0,1,0,1
1.421732000,0,0,0,1
1.421740000,0,0,0,0
1.421747000,0,0,0,1
1.421760000,0,0,1,1
1.431780000,0,0,0,1
1.431782000,0,0,0,0
1.431787000,0,0,0,1
1.431799000,0,0,1,1
1.436736000,0,0,0,1
1.436747000,0,0,0,0
1.436753000,0,0,0,1
1.436761000,1,0,0,1
1.446739000,0,0,0,1
1.446747000,0,0,0,0
1.446753000,0,0,0,1
1.446762000,0,1,0,1
1.456743000,0,0,0,1
1.456751000,0,0,0,0
1.456757000,0,0,0,1
1.456766000,1,0,0,1
1.466745000,0,0,0,1
1.466753000,0,0,0,0
1.466760000,0,0,0,1
1.466769000,1,0,0,1
1.476748000,0,0,0,1
1.476756000,0,0,0,0
1.476762000,0,0,0,1
1.476771000,0,1,0,1
1.486750000,0,0,0,1
1.486759000,0,0,0,0
1.486765000,0,0,0,1
1.486778000,0,0,1,1
1.496798000,0,0,0,1
1.496800000,0,0,0,0
1.496806000,0,0,0,1
1.496817000,0,0,1,1
1.501755000,0,0,0,1
1.501765000,0,0,0,0
1.501771000,0,0,0,1
1.501780000,1,0,0,1
1.511759000,0,0,0,1
1.511767000,0,0,0,0
1.511773000,0,0,0,1
1.511782000,0,1,0,1
1.521761000,0,0,0,1
1.521769000,0,0,0,0
1.521776000,0,0,0,1
1.521785000,1,0,0,1
1.531764000,0,0,0,1
1.531772000,0,0,0,0
1.531778000,0,0,0,1
1.531787000,1,0,0,1
1.541766000,0,0,0,1
1.541774000,0,0,0,0
1.541781000,0,0,0,1
1.541790000,0,1,0,1
1.551769000,0,0,0,1
1.551777000,0,0,0,0
1.551783000,0,0,0,1
1.551797000,0,0,1,1
1.561817000,0,0,0,1
1.561818000,0,0,0,0
1.561824000,0,0,0,1
1.561836000,0,0,1,1
1.566774000,0,0,0,1
1.566785000,0,0,0,0
1.566791000,0,0,0,1
1.566800000,1,0,0,1
1.576777000,0,0,0,1
1.576785000,0,0,0,0
1.576792000,0,0,0,1
1.576801000,0,1,0,1
1.586779000,0,0,0,1
1.586788000,0,0,0,0
1.586794000,0,0,0,1
1.586803000,1,0,0,1
1.596782000,0,0,0,1
1.596790000,0,0,0,0
1.596797000,0,0,0,1
1.596805000,1,0,0,1
1.606784000,0,0,0,1
1.606793000,0,0,0,0
1.606799000,0,0,0,1
1.606808000,0,1,0,1
1.616788000,0,0,0,1
1.616797000,0,0,0,0
1.616803000,0,0,0,1
1.616817000,0,0,1,1
1.626835000,0,0,0,1
1.626837000,0,0,0,0
1.626843000,0,0,0,1
1.626854000,0,0,1,1
1.631793000,0,0,0,1
1.631804000,0,0,0,0
1.631809000,0,0,0,1
1.631818000,1,0,0,1
1.641796000,0,0,0,1
1.641804000,0,0,0,0
1.641810000,0,0,0,1
1.641819000,0,1,0,1
1.651798000,0,0,0,1
1.651806000,0,0,0,0
1.651813000,0,0,0,1
1.651821000,1,0,0,1
1.661800000,0,0,0,1
1.661809000,0,0,0,0
1.661815000,0,0,0,1
1.661824000,1,0,0,1
1.671804000,0,0,0,1
1.671813000,0,0,0,0
1.671819000,0,0,0,1
1.671828000,0,1,0,1
1.681807000,0,0,0,1
1.681815000,0,0,0,0
1.681822000,0,0,0,1
1.681835000,0,0,1,1
1.691854000,0,0,0,1
1.691856000,0,0,0,0
1.691862000,0,0,0,1
1.691874000,0,0,1,1
1.696811000,0,0,0,1
1.696822000,0,0,0,0
1.696828000,0,0,0,1
1.696836000,1,0,0,1
1.706814000,0,0,0,1
1.706822000,0,0,0,0
1.706828000,0,0,0,1
1.706837000,0,1,0,1
1.716818000,0,0,0,1
1.716826000,0,0,0,0
1.716832000,0,0,0,1
1.716841000,1,0,0,1
1.726820000,0,0,0,1
1.726828000,0,0,0,0
1.726835000,0,0,0,1
1.726844000,1,0,0,1
1.736823000,0,0,0,1
1.736831000,0,0,0,0
1.736837000,0,0,0,1
1.736846000,0,1,0,1
1.746825000,0,0,0,1
1.746834000,0,0,0,0
1.746840000,0,0,0,1
1.746853000,0,0,1,1
1.756873000,0,0,0,1
1.756875000,0,0,0,0
1.756881000,0,0,0,1
1.756892000,0,0,1,1
1.761830000,0,0,0,1
1.761840000,0,0,0,0
1.761846000,0,0,0,1
1.761855000,1,0,0,1
1.771834000,0,0,0,1
1.771842000,0,0,0,0
1.771848000,0,0,0,1
1.771857000,0,1,0,1
1.781836000,0,0,0,1
1.781844000,0,0,0,0
1.781851000,0,0,0,1
1.781860000,1,0,0,1
1.791839000,0,0,0,1
1.791847000,0,0,0,0
1.791853000,0,0,0,1
1.791862000,1,0,0,1
1.801841000,0,0,0,1
1.801849000,0,0,0,0
1.801856000,0,0,0,1
1.801865000,0,1,0,1
1.811844000,0,0,0,1
1.811852000,0,0,0,0
1.811858000,0,0,0,1
1.811872000,0,0,1,1
1.821892000,0,0,0,1
1.821893000,0,0,0,0
1.821899000,0,0,0,1
1.821911000,0,0,1,1
1.826849000,0,0,0,1
1.826860000,0,0,0,0
1.826866000,0,0,0,1
1.826875000,1,0,0,1
1.836852000,0,0,0,1
1.836860000,0,0,0,0
1.836867000,0,0,0,1
1.836876000,0,1,0,1
1.846854000,0,0,0,1
1.846863000,0,0,0,0
1.846869000,0,0,0,1
1.846878000,1,0,0,1
1.856857000,0,0,0,1
1.856865000,0,0,0,0
1.856872000,0,0,0,1
1.856880000,1,0,0,1
1.866860000,0,0,0,1
1.866868000,0,0,0,0
1.866874000,0,0,0,1
1.866883000,0,1,0,1
1.876862000,0,0,0,1
1.876870000,0,0,0,0
1.876877000,0,0,0,1
1.876890000,0,0,1,1
1.886910000,0,0,0,1
1.886912000,0,0,0,0
1.886918000,0,0,0,1
1.886929000,0,0,1,1
1.891868000,0,0,0,1
1.891879000,0,0,0,0
1.891884000,0,0,0,1
1.891893000,1,0,0,1
1.901871000,0,0,0,1
1.901879000,0,0,0,0
1.901885000,0,0,0,1
1.901894000,0,1,0,1
1.911873000,0,0,0,1
1.911881000,0,0,0,0
1.911888000,0,0,0,1
1.911896000,1,0,0,1
1.921875000,0,0,0,1
1.921884000,0,0,0,0
1.921890000,0,0,0,1
1.921899000,1,0,0,1
1.931879000,0,0,0,1
1.931888000,0,0,0,0
1.931894000,0,0,0,1
1.931903000,0,1,0,1
1.941882000,0,0,0,1
1.941890000,0,0,0,0
1.941897000,0,0,0,1
1.941910000,0,0,1,1
1.951929000,0,0,0,1
1.951931000,0,0,0,0
1.951936000,0,0,0,1
1.951949000,0,0,1,1
1.956886000,0,0,0,1
1.956897000,0,0,0,0
1.956903000,0,0,0,1
1.956912000,1,0,0,1
1.966889000,0,0,0,1
1.966897000,0,0,0,0
1.966904000,0,0,0,1
1.966912000,0,1,0,1
1.976891000,0,0,0,1
1.976900000,0,0,0,0
1.976906000,0,0,0,1
1.976915000,1,0,0,1
1.986895000,0,0,0,1
1.986904000,0,0,0,0
1.986910000,0,0,0,1
1.986919000,1,0,0,1
1.996898000,0,0,0,1
1.996906000,0,0,0,0
1.996912000,0,0,0,1
1.996921000,0,1,0,1
2.006900000,0,0,0,1
2.006909000,0,0,0,0
2.006915000,0,0,0,1
2.006929000,0,0,1,1
2.016948000,0,0,0,1
2.016950000,0,0,0,0
2.016956000,0,0,0,1
2.016967000,0,0,1,1
2.021905000,0,0,0,1
2.021915000,0,0,0,0
2.021921000,0,0,0,1
2.021930000,1,0,0,1
2.031907000,0,0,0,1
2.031916000,0,0,0,0
2.031922000,0,0,0,1
2.031931000,0,1,0,1
2.041911000,0,0,0,1
2.041919000,0,0,0,0
2.041926000,0,0,0,1
2.041935000,1,0,0,1
2.051914000,0,0,0,1
2.051922000,0,0,0,0
2.051928000,0,0,0,1
2.051937000,1,0,0,1
2.061916000,0,0,0,1
2.061924000,0,0,0,0
2.061931000,0,0,0,1
2.061940000,0,1,0,1
2.071919000,0,0,0,1
2.071927000,0,0,0,0
2.071933000,0,0,0,1
2.071947000,0,0,1,1
2.081967000,0,0,0,1
2.081968000,0,0,0,0
2.081974000,0,0,0,1
2.081986000,0,0,1,1
2.086923000,0,0,0,1
2.086934000,0,0,0,0
2.086939000,0,0,0,1
2.086948000,1,0,0,1
2.096927000,0,0,0,1
2.096935000,0,0,0,0
2.096942000,0,0,0,1
2.096951000,0,1,0,1
2.106930000,0,0,0,1
2.106938000,0,0,0,0
2.106944000,0,0,0,1
2.106953000,1,0,0,1
2.116932000,0,0,0,1
2.116940000,0,0,0,0
2.116947000,0,0,0,1
2.116956000,1,0,0,1
2.126935000,0,0,0,1
2.126943000,0,0,0,0
2.126949000,0,0,0,1
2.126958000,0,1,0,1
2.136937000,0,0,0,1
2.136945000,0,0,0,0
2.136952000,0,0,0,1
2.136965000,0,0,1,1
2.146985000,0,0,0,1
2.146987000,0,0,0,0
2.146993000,0,0,0,1
2.147004000,0,0,1,1
2.151943000,0,0,0,1
2.151954000,0,0,0,0
2.151959000,0,0,0,1
2.151968000,1,0,0,1
2.161946000,0,0,0,1
2.161954000,0,0,0,0
2.161960000,0,0,0,1
2.161969000,0,1,0,1
2.171948000,0,0,0,1
2.171956000,0,0,0,0
2.171963000,0,0,0,1
2.171971000,1,0,0,1
2.181950000,0,0,0,1
2.181959000,0,0,0,0
2.181965000,0,0,0,1
2.181974000,1,0,0,1
2.191953000,0,0,0,1
2.191961000,0,0,0,0
2.191968000,0,0,0,1
2.191977000,0,1,0,1
2.201957000,0,0,0,1
2.201965000,0,0,0,0
2.201972000,0,0,0,1
2.201985000,0,0,1,1
2.212004000,0,0,0,1
2.212006000,0,0,0,0
2.212011000,0,0,0,1
2.212023000,0,0,1,1
2.216961000,0,0,0,1
2.216972000,0,0,0,0
2.216978000,0,0,0,1
2.216987000,1,0,0,1
2.226964000,0,0,0,1
2.226972000,0,0,0,0
2.226979000,0,0,0,1
2.226988000,0,1,0,1
2.236966000,0,0,0,1
2.236975000,0,0,0,0
2.236981000,0,0,0,1
2.236990000,1,0,0,1
2.246969000,0,0,0,1
2.246977000,0,0,0,0
2.246984000,0,0,0,1
2.246992000,1,0,0,1
2.256973000,0,0,0,1
2.256981000,0,0,0,0
2.256988000,0,0,0,1
2.256996000,0,1,0,1
2.266975000,0,0,0,1
2.266984000,0,0,0,0
2.266990000,0,0,0,1
2.267004000,0,0,1,1
2.277023000,0,0,0,1
2.277024000,0,0,0,0
2.277030000,0,0,0,1
2.277043000,0,0,1,1
2.281980000,0,0,0,1
2.281990000,0,0,0,0
2.281996000,0,0,0,1
2.282005000,1,0,0,1
2.291982000,0,0,0,1
2.291991000,0,0,0,0
2.291997000,0,0,0,1
2.292006000,0,1,0,1
2.301986000,0,0,0,1
2.301994000,0,0,0,0
2.302001000,0,0,0,1
2.302010000,1,0,0,1
